Time [s],Packet ID,MOSI,MISO
0.0196771200,0,0x00000004,0x30000C46
0.0197057600,1,0x11C003D4,0x30000006
0.0197338000,2,0x63200010,0x30000006
0.0197617400,3,0x6300000C,0x30000006
0.0197901600,4,0x09C00004,0x30002211
0.0198185400,5,0x0AC00030,0x30000006
0.0212950000,6,0x07800014,0x30200007
0.0212991000,7,0x0800001C,0x30200007
0.0213031800,8,0x00000004,0x30200C47
0.0213072800,9,0x00000004,0x30200C47
0.0213113800,10,0x00000004,0x30200C47
0.0213154600,11,0x00000004,0x30200C47
0.0213195600,12,0x00000004,0x30200C47
0.0213236600,13,0x00000004,0x30200C47
0.0213277400,14,0x00000004,0x30200C47
0.0213318400,15,0x00000004,0x30200C47
0.0213359400,16,0x00000004,0x30200C47
0.0213702400,17,0x00000004,0x30200C47
0.0213784400,18,0x00000004,0x30200C47
0.0214471200,19,0x09C00004,0x30202210
0.0214635000,20,0x05400014,0x30202707
0.0214676000,21,0x05400014,0x30202707
0.0214716800,22,0x05400014,0x30202707
0.0214921600,23,0x00000004,0x30200C47
0.0214962400,24,0x00000004,0x30200C47
0.0215003400,25,0x00000004,0x30200C47
0.0215044400,26,0x00000004,0x30200C47
0.0217943600,27,0x07800014,0x30200007
0.0217984600,28,0x0800001C,0x30200007
0.0218025600,29,0x00000004,0x30200C47
0.0218066400,30,0x00000004,0x30200C47
0.0218107400,31,0x00000004,0x30200C47
0.0218148400,32,0x00000004,0x30200C47
0.0218189200,33,0x00000004,0x30200C47
0.0218230200,34,0x00000004,0x30200C47
0.0218271200,35,0x00000004,0x30200C47
0.0218312000,36,0x00000004,0x30200C47
0.0218353000,37,0x00000004,0x30200C47
0.0218696200,38,0x00000004,0x30200C47
0.0218778000,39,0x00000004,0x30200C47
0.0219471600,40,0x09C00004,0x30202210
0.0219635400,41,0x05400014,0x30202707
0.0219676400,42,0x05400014,0x30202707
0.0219717400,43,0x05400014,0x30202707
0.0219922000,44,0x00000004,0x30200C47
0.0219963000,45,0x00000004,0x30200C47
0.0220003800,46,0x00000004,0x30200C47
0.0220044800,47,0x00000004,0x30200C47
0.0222948600,48,0x07800014,0x30200007
0.0222989600,49,0x0800001C,0x30200007
0.0223030600,50,0x00000004,0x30200C47
0.0223071600,51,0x00000004,0x30200C47
0.0223112400,52,0x00000004,0x30200C47
0.0223153400,53,0x00000004,0x30200C47
0.0223194400,54,0x00000004,0x30200C47
0.0223235200,55,0x00000004,0x30200C47
0.0223276200,56,0x00000004,0x30200C47
0.0223317200,57,0x00000004,0x30200C47
0.0223358000,58,0x00000004,0x30200C47
0.0223701200,59,0x00000004,0x30200C47
0.0223783000,60,0x00000004,0x30200C47
0.0224471600,61,0x09C00004,0x30202210
0.0224635400,62,0x05400014,0x30202707
0.0224676400,63,0x05400014,0x30202707
0.0224717200,64,0x05400014,0x30202707
0.0224922000,65,0x00000004,0x30200C47
0.0224962800,66,0x00000004,0x30200C47
0.0225003800,67,0x00000004,0x30200C47
0.0225044800,68,0x00000004,0x30200C47
0.0227943800,69,0x07800014,0x30200007
0.0227984600,70,0x0800001C,0x30200007
0.0228025600,71,0x00000004,0x30200C47
0.0228066600,72,0x00000004,0x30200C47
0.0228107400,73,0x00000004,0x30200C47
0.0228148400,74,0x00000004,0x30200C47
0.0228189400,75,0x00000004,0x30200C47
0.0228230200,76,0x00000004,0x30200C47
0.0228271200,77,0x00000004,0x30200C47
0.0228312200,78,0x00000004,0x30200C47
0.0228353000,79,0x00000004,0x30200C47
0.0228696200,80,0x00000004,0x30200C47
0.0228778000,81,0x00000004,0x30200C47
0.0229470600,82,0x09C00004,0x30202210
0.0229634400,83,0x05400014,0x30202707
0.0229675200,84,0x05400014,0x30202707
0.0229716200,85,0x05400014,0x30202707
0.0229921000,86,0x00000004,0x30200C47
0.0229961800,87,0x00000004,0x30200C47
0.0230002800,88,0x00000004,0x30200C47
0.0230043800,89,0x00000004,0x30200C47
0.0232944400,90,0x07800014,0x30200007
0.0232985400,91,0x0800001C,0x30200007
0.0233026400,92,0x00000004,0x30200C47
0.0233067200,93,0x00000004,0x30200C47
0.0233108200,94,0x00000004,0x30200C47
0.0233149200,95,0x00000004,0x30200C47
0.0233190000,96,0x00000004,0x30200C47
0.0233231000,97,0x00000004,0x30200C47
0.0233272000,98,0x00000004,0x30200C47
0.0233313000,99,0x00000004,0x30200C47
0.0233353800,100,0x00000004,0x30200C47
0.0233697000,101,0x00000004,0x30200C47
0.0233778800,102,0x00000004,0x30200C47
0.0234471600,103,0x09C00004,0x30202210
0.0234635400,104,0x05400014,0x30202707
0.0234676200,105,0x05400014,0x30202707
0.0234717200,106,0x05400014,0x30202707
0.0234921800,107,0x00000004,0x30200C47
0.0234962800,108,0x00000004,0x30200C47
0.0235003800,109,0x00000004,0x30200C47
0.0235044800,110,0x00000004,0x30200C47
0.0237943800,111,0x07800014,0x30200007
0.0237984800,112,0x0800001C,0x30200007
0.0238025600,113,0x00000004,0x30200C47
0.0238066600,114,0x00000004,0x30200C47
0.0238107600,115,0x00000004,0x30200C47
0.0238148400,116,0x00000004,0x30200C47
0.0238189400,117,0x00000004,0x30200C47
0.0238230400,118,0x00000004,0x30200C47
0.0238271200,119,0x00000004,0x30200C47
0.0238312200,120,0x00000004,0x30200C47
0.0238353200,121,0x00000004,0x30200C47
0.0238696200,122,0x00000004,0x30200C47
0.0238778200,123,0x00000004,0x30200C47
0.0239470600,124,0x09C00004,0x30202210
0.0239634400,125,0x05400014,0x30202707
0.0239675200,126,0x05400014,0x30202707
0.0239716200,127,0x05400014,0x30202707
0.0239920800,128,0x00000004,0x30200C47
0.0239961800,129,0x00000004,0x30200C47
0.0240002800,130,0x00000004,0x30200C47
0.0240043600,131,0x00000004,0x30200C47
0.0242944600,132,0x07800014,0x30200007
0.0242985400,133,0x0800001C,0x30200007
0.0243026400,134,0x00000004,0x30200C47
0.0243067400,135,0x00000004,0x30200C47
0.0243108200,136,0x00000004,0x30200C47
0.0243149200,137,0x00000004,0x30200C47
0.0243190200,138,0x00000004,0x30200C47
0.0243231000,139,0x00000004,0x30200C47
0.0243272000,140,0x00000004,0x30200C47
0.0243313000,141,0x00000004,0x30200C47
0.0243354000,142,0x00000004,0x30200C47
0.0243697000,143,0x00000004,0x30200C47
0.0243779000,144,0x00000004,0x30200C47
0.0244472000,145,0x09C00004,0x30202210
0.0244635600,146,0x05400014,0x30202707
0.0244676600,147,0x05400014,0x30202707
0.0244717600,148,0x05400014,0x30202707
0.0244922200,149,0x00000004,0x30200C47
0.0244963200,150,0x00000004,0x30200C47
0.0245004200,151,0x00000004,0x30200C47
0.0245045000,152,0x00000004,0x30200C47
0.0247943800,153,0x07800014,0x30200007
0.0247984800,154,0x0800001C,0x30200007
0.0248025800,155,0x00000004,0x30200C47
0.0248066600,156,0x00000004,0x30200C47
0.0248107600,157,0x00000004,0x30200C47
0.0248148600,158,0x00000004,0x30200C47
0.0248189400,159,0x00000004,0x30200C47
0.0248230400,160,0x00000004,0x30200C47
0.0248271400,161,0x00000004,0x30200C47
0.0248312200,162,0x00000004,0x30200C47
0.0248353200,163,0x00000004,0x30200C47
0.0248696400,164,0x00000004,0x30200C47
0.0248778200,165,0x00000004,0x30200C47
0.0249469800,166,0x09C00004,0x30202210
0.0249633600,167,0x05400014,0x30202707
0.0249674400,168,0x05400014,0x30202707
0.0249715400,169,0x05400014,0x30202707
0.0249920000,170,0x00000004,0x30200C47
0.0249961000,171,0x00000004,0x30200C47
0.0250002000,172,0x00000004,0x30200C47
0.0250043000,173,0x00000004,0x30200C47
0.0252950800,174,0x07800014,0x30200007
0.0252991800,175,0x0800001C,0x30200007
0.0253032800,176,0x00000004,0x30200C47
0.0253073600,177,0x00000004,0x30200C47
0.0253114600,178,0x00000004,0x30200C47
0.0253155600,179,0x00000004,0x30200C47
0.0253196400,180,0x00000004,0x30200C47
0.0253237400,181,0x00000004,0x30200C47
0.0253278400,182,0x00000004,0x30200C47
0.0253319200,183,0x00000004,0x30200C47
0.0253360200,184,0x00000004,0x30200C47
0.0253703400,185,0x00000004,0x30200C47
0.0253785200,186,0x00000004,0x30200C47
0.0254471400,187,0x09C00004,0x30202210
0.0254635200,188,0x05400014,0x30202707
0.0254676200,189,0x05400014,0x30202707
0.0254717200,190,0x05400014,0x30202707
0.0254921800,191,0x00000004,0x30200C47
0.0254962800,192,0x00000004,0x30200C47
0.0255003600,193,0x00000004,0x30200C47
0.0255044600,194,0x00000004,0x30200C47
0.0257944000,195,0x07800014,0x30200007
0.0257984800,196,0x0800001C,0x30200007
0.0258025800,197,0x00000004,0x30200C47
0.0258066800,198,0x00000004,0x30200C47
0.0258107600,199,0x00000004,0x30200C47
0.0258148600,200,0x00000004,0x30200C47
0.0258189600,201,0x00000004,0x30200C47
0.0258230400,202,0x00000004,0x30200C47
0.0258271400,203,0x00000004,0x30200C47
0.0258312400,204,0x00000004,0x30200C47
0.0258353200,205,0x00000004,0x30200C47
0.0258696400,206,0x00000004,0x30200C47
0.0258778200,207,0x00000004,0x30200C47
0.0259470400,208,0x09C00004,0x30202210
0.0259634200,209,0x05400014,0x30202707
0.0259675000,210,0x05400014,0x30202707
0.0259716000,211,0x05400014,0x30202707
0.0259920600,212,0x00000004,0x30200C47
0.0259961600,213,0x00000004,0x30200C47
0.0260002600,214,0x00000004,0x30200C47
0.0260043400,215,0x00000004,0x30200C47
0.0262944600,216,0x07800014,0x30200007
0.0262985600,217,0x0800001C,0x30200007
0.0263026600,218,0x00000004,0x30200C47
0.0263067400,219,0x00000004,0x30200C47
0.0263108400,220,0x00000004,0x30200C47
0.0263149400,221,0x00000004,0x30200C47
0.0263190200,222,0x00000004,0x30200C47
0.0263231200,223,0x00000004,0x30200C47
0.0263272200,224,0x00000004,0x30200C47
0.0263313000,225,0x00000004,0x30200C47
0.0263354000,226,0x00000004,0x30200C47
0.0263697200,227,0x00000004,0x30200C47
0.0263779000,228,0x00000004,0x30200C47
0.0264471200,229,0x09C00004,0x30202210
0.0264634800,230,0x05400014,0x30202707
0.0264675800,231,0x05400014,0x30202707
0.0264716800,232,0x05400014,0x30202707
0.0264921400,233,0x00000004,0x30200C47
0.0264962400,234,0x00000004,0x30200C47
0.0265003400,235,0x00000004,0x30200C47
0.0265044200,236,0x00000004,0x30200C47
0.0267944000,237,0x07800014,0x30200007
0.0267984800,238,0x0800001C,0x30200007
0.0268025800,239,0x00000004,0x30200C47
0.0268066800,240,0x00000004,0x30200C47
0.0268107800,241,0x00000004,0x30200C47
0.0268148600,242,0x00000004,0x30200C47
0.0268189600,243,0x00000004,0x30200C47
0.0268230600,244,0x00000004,0x30200C47
0.0268271400,245,0x00000004,0x30200C47
0.0268312400,246,0x00000004,0x30200C47
0.0268353400,247,0x00000004,0x30200C47
0.0268696400,248,0x00000004,0x30200C47
0.0268778400,249,0x00000004,0x30200C47
0.0269470400,250,0x09C00004,0x30202210
0.0269634000,251,0x05400014,0x30202707
0.0269675000,252,0x05400014,0x30202707
0.0269716000,253,0x05400014,0x30202707
0.0269920600,254,0x00000004,0x30200C47
0.0269961600,255,0x00000004,0x30200C47
0.0270002600,256,0x00000004,0x30200C47
0.0270043400,257,0x00000004,0x30200C47
0.0272944800,258,0x07800014,0x30200007
0.0272985600,259,0x0800001C,0x30200007
0.0273026600,260,0x00000004,0x30200C47
0.0273067600,261,0x00000004,0x30200C47
0.0273108400,262,0x00000004,0x30200C47
0.0273149400,263,0x00000004,0x30200C47
0.0273190400,264,0x00000004,0x30200C47
0.0273231200,265,0x00000004,0x30200C47
0.0273272200,266,0x00000004,0x30200C47
0.0273313200,267,0x00000004,0x30200C47
0.0273354000,268,0x00000004,0x30200C47
0.0273697200,269,0x00000004,0x30200C47
0.0273779000,270,0x00000004,0x30200C47
0.0274471600,271,0x09C00004,0x30202210
0.0274635400,272,0x05400014,0x30202707
0.0274676400,273,0x05400014,0x30202707
0.0274717200,274,0x05400014,0x30202707
0.0274922000,275,0x00000004,0x30200C47
0.0274962800,276,0x00000004,0x30200C47
0.0275003800,277,0x00000004,0x30200C47
0.0275044800,278,0x00000004,0x30200C47
0.0277944000,279,0x07800014,0x30200007
0.0277985000,280,0x0800001C,0x30200007
0.0278025800,281,0x00000004,0x30200C47
0.0278066800,282,0x00000004,0x30200C47
0.0278107800,283,0x00000004,0x30200C47
0.0278148800,284,0x00000004,0x30200C47
0.0278189600,285,0x00000004,0x30200C47
0.0278230600,286,0x00000004,0x30200C47
0.0278271600,287,0x00000004,0x30200C47
0.0278312400,288,0x00000004,0x30200C47
0.0278353400,289,0x00000004,0x30200C47
0.0278696600,290,0x00000004,0x30200C47
0.0278778400,291,0x00000004,0x30200C47
0.0279471000,292,0x09C00004,0x30202210
0.0279634600,293,0x05400014,0x30202707
0.0279675600,294,0x05400014,0x30202707
0.0279716600,295,0x05400014,0x30202707
0.0279921200,296,0x00000004,0x30200C47
0.0279962200,297,0x00000004,0x30200C47
0.0280003000,298,0x00000004,0x30200C47
0.0280044000,299,0x00000004,0x30200C47
0.0282944800,300,0x07800014,0x30200007
0.0282985800,301,0x0800001C,0x30200007
0.0283026600,302,0x00000004,0x30200C47
0.0283067600,303,0x00000004,0x30200C47
0.0283108600,304,0x00000004,0x30200C47
0.0283149400,305,0x00000004,0x30200C47
0.0283190400,306,0x00000004,0x30200C47
0.0283231400,307,0x00000004,0x30200C47
0.0283272200,308,0x00000004,0x30200C47
0.0283313200,309,0x00000004,0x30200C47
0.0283354200,310,0x00000004,0x30200C47
0.0283697200,311,0x00000004,0x30200C47
0.0283779200,312,0x00000004,0x30200C47
0.0284471200,313,0x09C00004,0x30202210
0.0284635000,314,0x05400014,0x30202707
0.0284676000,315,0x05400014,0x30202707
0.0284716800,316,0x05400014,0x30202707
0.0284921600,317,0x00000004,0x30200C47
0.0284962600,318,0x00000004,0x30200C47
0.0285003400,319,0x00000004,0x30200C47
0.0285044400,320,0x00000004,0x30200C47
0.0287944000,321,0x07800014,0x30200007
0.0287985000,322,0x0800001C,0x30200007
0.0288026000,323,0x00000004,0x30200C47
0.0288066800,324,0x00000004,0x30200C47
0.0288107800,325,0x00000004,0x30200C47
0.0288148800,326,0x00000004,0x30200C47
0.0288189800,327,0x00000004,0x30200C47
0.0288230600,328,0x00000004,0x30200C47
0.0288271600,329,0x00000004,0x30200C47
0.0288312600,330,0x00000004,0x30200C47
0.0288353400,331,0x00000004,0x30200C47
0.0288696600,332,0x00000004,0x30200C47
0.0288778400,333,0x00000004,0x30200C47
0.0289471000,334,0x09C00004,0x30202210
0.0289634800,335,0x05400014,0x30202707
0.0289675600,336,0x05400014,0x30202707
0.0289716600,337,0x05400014,0x30202707
0.0289921200,338,0x00000004,0x30200C47
0.0289962200,339,0x00000004,0x30200C47
0.0290003200,340,0x00000004,0x30200C47
0.0290044000,341,0x00000004,0x30200C47
0.0292947200,342,0x07800014,0x30200007
0.0292988200,343,0x0800001C,0x30200007
0.0293029200,344,0x00000004,0x30200C47
0.0293070000,345,0x00000004,0x30200C47
0.0293111000,346,0x00000004,0x30200C47
0.0293152000,347,0x00000004,0x30200C47
0.0293192800,348,0x00000004,0x30200C47
0.0293233800,349,0x00000004,0x30200C47
0.0293274800,350,0x00000004,0x30200C47
0.0293315600,351,0x00000004,0x30200C47
0.0293356600,352,0x00000004,0x30200C47
0.0293699800,353,0x64201050,0x30200007
0.0293781600,354,0x00000004,0x30200C47
0.0294471800,355,0x09C00004,0x30202210
0.0294635400,356,0x05400014,0x30202707
0.0294676400,357,0x05400014,0x30202707
0.0294717400,358,0x05400014,0x30202707
0.0294922000,359,0x00000004,0x30200C47
0.0294963000,360,0x00000004,0x30200C47
0.0295004000,361,0x00000004,0x30200C47
0.0295044800,362,0x00000004,0x30200C47
0.0297947200,363,0x08C00FEC,0x30200007
0.0297988200,364,0x00000004,0x30200C47
0.0298029200,365,0x00000004,0x30200C47
0.0298070000,366,0x00000004,0x30200C47
0.0298111000,367,0x00000004,0x30200C47
0.0298152000,368,0x00000004,0x30200C47
0.0298192800,369,0x00000004,0x30200C47
0.0298233800,370,0x00000004,0x30200C47
0.0298274800,371,0x00000004,0x30200C47
0.0298315800,372,0x00000004,0x30200C47
0.0298356600,373,0x00000004,0x30200C47
0.0298699800,374,0x64601044,0x30200007
0.0298781600,375,0x00000004,0x30200C47
0.0299472000,376,0x09C00004,0x30202210
0.0299635800,377,0x05400014,0x30202707
0.0299676800,378,0x05400014,0x30202707
0.0299717800,379,0x05400014,0x30202707
0.0299922400,380,0x00000004,0x30200C47
0.0299963400,381,0x00000004,0x30200C47
0.0300004200,382,0x00000004,0x30200C47
0.0300045200,383,0x00000004,0x30200C47
0.0302951000,384,0x00000004,0x30200C47
0.0302991800,385,0x00000004,0x30200C47
0.0303032800,386,0x00000004,0x30200C47
0.0303073800,387,0x00000004,0x30200C47
0.0303114800,388,0x00000004,0x30200C47
0.0303155600,389,0x00000004,0x30200C47
0.0303196600,390,0x00000004,0x30200C47
0.0303237600,391,0x00000004,0x30200C47
0.0303278400,392,0x00000004,0x30200C47
0.0303319400,393,0x00000004,0x30200C47
0.0303360400,394,0x00000004,0x30200C47
0.0303703400,395,0x64A01054,0x30200007
0.0303785400,396,0x00000004,0x30200C47
0.0304473400,397,0x09C00004,0x30202210
0.0304637200,398,0x05400014,0x30202707
0.0304678200,399,0x05400014,0x30202707
0.0304719000,400,0x05400014,0x30202707
0.0304923800,401,0x00000004,0x30200C47
0.0304964800,402,0x00000004,0x30200C47
0.0305005600,403,0x00000004,0x30200C47
0.0305046600,404,0x00000004,0x30200C47
0.0307947400,405,0x00000004,0x30200C47
0.0307988200,406,0x00000004,0x30200C47
0.0308029200,407,0x00000004,0x30200C47
0.0308070200,408,0x00000004,0x30200C47
0.0308111000,409,0x00000004,0x30200C47
0.0308152000,410,0x00000004,0x30200C47
0.0308193000,411,0x00000004,0x30200C47
0.0308233800,412,0x00000004,0x30200C47
0.0308274800,413,0x00000004,0x30200C47
0.0308315800,414,0x00000004,0x30200C47
0.0308356800,415,0x00000004,0x30200C47
0.0308699800,416,0x64E01040,0x30200007
0.0308781800,417,0x00000004,0x30200C47
0.0309471400,418,0x09C00004,0x30202210
0.0309635000,419,0x05400014,0x30202707
0.0309676000,420,0x05400014,0x30202707
0.0309717000,421,0x05400014,0x30202707
0.0309921600,422,0x00000004,0x30200C47
0.0309962600,423,0x00000004,0x30200C47
0.0310003400,424,0x00000004,0x30200C47
0.0310044400,425,0x00000004,0x30200C47
0.0312948400,426,0x00000004,0x30200C47
0.0312989400,427,0x00000004,0x30200C47
0.0313030200,428,0x00000004,0x30200C47
0.0313071200,429,0x00000004,0x30200C47
0.0313112200,430,0x00000004,0x30200C47
0.0313153000,431,0x00000004,0x30200C47
0.0313194000,432,0x00000004,0x30200C47
0.0313235000,433,0x00000004,0x30200C47
0.0313276000,434,0x00000004,0x30200C47
0.0313316800,435,0x00000004,0x30200C47
0.0313357800,436,0x00000004,0x30200C47
0.0313701000,437,0x65201058,0x30200007
0.0313782800,438,0x00000004,0x30200C47
0.0314471800,439,0x09C00004,0x30202210
0.0314635600,440,0x05400014,0x30202707
0.0314676600,441,0x05400014,0x30202707
0.0314717400,442,0x05400014,0x30202707
0.0314922200,443,0x00000004,0x30200C47
0.0314963000,444,0x00000004,0x30200C47
0.0315004000,445,0x00000004,0x30200C47
0.0315045000,446,0x00000004,0x30200C47
0.0317947400,447,0x00000004,0x30200C47
0.0317988400,448,0x00000004,0x30200C47
0.0318029200,449,0x00000004,0x30200C47
0.0318070200,450,0x00000004,0x30200C47
0.0318111200,451,0x00000004,0x30200C47
0.0318152000,452,0x00000004,0x30200C47
0.0318193000,453,0x00000004,0x30200C47
0.0318234000,454,0x00000004,0x30200C47
0.0318274800,455,0x00000004,0x30200C47
0.0318315800,456,0x00000004,0x30200C47
0.0318356800,457,0x00000004,0x30200C47
0.0318700000,458,0x6560104C,0x30200007
0.0318781800,459,0x00000004,0x30200C47
0.0319471400,460,0x09C00004,0x30202210
0.0319635200,461,0x05400014,0x30202707
0.0319676000,462,0x05400014,0x30202707
0.0319717000,463,0x05400014,0x30202707
0.0319921600,464,0x00000004,0x30200C47
0.0319962600,465,0x00000004,0x30200C47
0.0320003600,466,0x00000004,0x30200C47
0.0320044400,467,0x00000004,0x30200C47
0.0322948400,468,0x00000004,0x30200C47
0.0322989400,469,0x00000004,0x30200C47
0.0323030400,470,0x00000004,0x30200C47
0.0323071200,471,0x00000004,0x30200C47
0.0323112200,472,0x00000004,0x30200C47
0.0323153200,473,0x00000004,0x30200C47
0.0323194000,474,0x00000004,0x30200C47
0.0323235000,475,0x00000004,0x30200C47
0.0323276000,476,0x00000004,0x30200C47
0.0323317000,477,0x00000004,0x30200C47
0.0323357800,478,0x00000004,0x30200C47
0.0323701000,479,0x65A0105C,0x30200007
0.0323782800,480,0x00000004,0x30200C47
0.0324472200,481,0x09C00004,0x30202210
0.0324636000,482,0x05400014,0x30202707
0.0324677000,483,0x05400014,0x30202707
0.0324717800,484,0x05400014,0x30202707
0.0324922600,485,0x00000004,0x30200C47
0.0324963400,486,0x00000004,0x30200C47
0.0325004400,487,0x00000004,0x30200C47
0.0325045400,488,0x00000004,0x30200C47
0.0327947400,489,0x00000004,0x30200C47
0.0327988400,490,0x00000004,0x30200C47
0.0328029400,491,0x00000004,0x30200C47
0.0328070200,492,0x00000004,0x30200C47
0.0328111200,493,0x00000004,0x30200C47
0.0328152200,494,0x00000004,0x30200C47
0.0328193000,495,0x00000004,0x30200C47
0.0328234000,496,0x00000004,0x30200C47
0.0328275000,497,0x00000004,0x30200C47
0.0328315800,498,0x00000004,0x30200C47
0.0328356800,499,0x00000004,0x30200C47
0.0328700000,500,0x65E01048,0x30200007
0.0328781800,501,0x00000004,0x30200C47
0.0329471600,502,0x09C00004,0x30202210
0.0329635200,503,0x05400014,0x30202707
0.0329676200,504,0x05400014,0x30202707
0.0329717200,505,0x05400014,0x30202707
0.0329921800,506,0x00000004,0x30200C47
0.0329962800,507,0x00000004,0x30200C47
0.0330003800,508,0x00000004,0x30200C47
0.0330044600,509,0x00000004,0x30200C47
0.0332948600,510,0x00000004,0x30200C47
0.0332989400,511,0x00000004,0x30200C47
0.0333030400,512,0x00000004,0x30200C47
0.0333071400,513,0x00000004,0x30200C47
0.0333112200,514,0x00000004,0x30200C47
0.0333153200,515,0x00000004,0x30200C47
0.0333194200,516,0x00000004,0x30200C47
0.0333235000,517,0x00000004,0x30200C47
0.0333276000,518,0x00000004,0x30200C47
0.0333317000,519,0x00000004,0x30200C47
0.0333358000,520,0x00000004,0x30200C47
0.0333701000,521,0x66201040,0x30200007
0.0333783000,522,0x00000004,0x30200C47
0.0334472000,523,0x09C00004,0x30202210
0.0334635800,524,0x05400014,0x30202707
0.0334676600,525,0x05400014,0x30202707
0.0334717600,526,0x05400014,0x30202707
0.0334922400,527,0x00000004,0x30200C47
0.0334963200,528,0x00000004,0x30200C47
0.0335004200,529,0x00000004,0x30200C47
0.0335045000,530,0x00000004,0x30200C47
0.0337947600,531,0x09000014,0x30200801
0.0337988400,532,0x00000004,0x30200C47
0.0338029400,533,0x00000004,0x30200C47
0.0338070400,534,0x00000004,0x30200C47
0.0338111200,535,0x00000004,0x30200C47
0.0338152200,536,0x00000004,0x30200C47
0.0338193200,537,0x00000004,0x30200C47
0.0338234000,538,0x00000004,0x30200C47
0.0338275000,539,0x00000004,0x30200C47
0.0338316000,540,0x00000004,0x30200C47
0.0338356800,541,0x00000004,0x30200C47
0.0338700000,542,0x66601054,0x30200007
0.0338782000,543,0x00000004,0x30200C47
0.0339471400,544,0x09C00004,0x30202210
0.0339635200,545,0x05400014,0x30202707
0.0339676200,546,0x05400014,0x30202707
0.0339717200,547,0x05400014,0x30202707
0.0339921800,548,0x00000004,0x30200C47
0.0339962800,549,0x00000004,0x30200C47
0.0340003600,550,0x00000004,0x30200C47
0.0340044600,551,0x00000004,0x30200C47
0.0342948600,552,0x09000038,0x30200801
0.0342989600,553,0x00000004,0x30200C47
0.0343030400,554,0x00000004,0x30200C47
0.0343071400,555,0x00000004,0x30200C47
0.0343112400,556,0x00000004,0x30200C47
0.0343153200,557,0x00000004,0x30200C47
0.0343194200,558,0x00000004,0x30200C47
0.0343235200,559,0x00000004,0x30200C47
0.0343276000,560,0x00000004,0x30200C47
0.0343317000,561,0x00000004,0x30200C47
0.0343358000,562,0x00000004,0x30200C47
0.0343701000,563,0x00000004,0x30200C47
0.0343783000,564,0x00000004,0x30200C47
0.0344472600,565,0x09C00004,0x30202210
0.0344636400,566,0x05400014,0x30202707
0.0344677400,567,0x05400014,0x30202707
0.0344718200,568,0x05400014,0x30202707
0.0344923000,569,0x00000004,0x30200C47
0.0344964000,570,0x00000004,0x30200C47
0.0345004800,571,0x00000004,0x30200C47
0.0345045800,572,0x00000004,0x30200C47
0.0347947600,573,0x62E03E9C,0x30200485
0.0347988600,574,0x00000004,0x30200C47
0.0348029400,575,0x00000004,0x30200C47
0.0348070400,576,0x00000004,0x30200C47
0.0348111400,577,0x00000004,0x30200C47
0.0348152200,578,0x00000004,0x30200C47
0.0348193200,579,0x00000004,0x30200C47
0.0348234200,580,0x00000004,0x30200C47
0.0348275000,581,0x00000004,0x30200C47
0.0348316000,582,0x00000004,0x30200C47
0.0348357000,583,0x00000004,0x30200C47
0.0348700000,584,0x0303FF28,0x30200007
0.0348782000,585,0x00000004,0x30600C45
0.0349471800,586,0x09C00004,0x30602212
0.0349635600,587,0x05400014,0x30602705
0.0349676600,588,0x05400014,0x30602705
0.0349717400,589,0x05400014,0x30602705
0.0349922200,590,0x00000004,0x30600C45
0.0349963200,591,0x00000004,0x30600C45
0.0350004000,592,0x00000004,0x30600C45
0.0350045000,593,0x00000004,0x30600C45
0.0352995800,594,0x62E03E9C,0x30601F44
0.0353036800,595,0x00000004,0x30600C45
0.0353077800,596,0x00000004,0x30600C45
0.0353118600,597,0x00000004,0x30600C45
0.0353159600,598,0x00000004,0x30600C45
0.0353200600,599,0x00000004,0x30600C45
0.0353241400,600,0x00000004,0x30600C45
0.0353282400,601,0x00000004,0x30600C45
0.0353323400,602,0x00000004,0x30600C45
0.0353364200,603,0x00000004,0x30600C45
0.0353405200,604,0x00000004,0x30600C45
0.0353748400,605,0x00000004,0x30600C45
0.0353830200,606,0x00000004,0x30600C45
0.0354472600,607,0x09C00004,0x30602212
0.0354636200,608,0x05400014,0x30602705
0.0354677200,609,0x05400014,0x30602705
0.0354718200,610,0x05400014,0x30602705
0.0354922800,611,0x00000004,0x30600C45
0.0354963800,612,0x00000004,0x30600C45
0.0355004800,613,0x00000004,0x30600C45
0.0355045600,614,0x00000004,0x30600C45
0.0357948600,615,0x62E03E9C,0x30601F44
0.0357989600,616,0x00000004,0x30600C45
0.0358030600,617,0x00000004,0x30600C45
0.0358071600,618,0x00000004,0x30600C45
0.0358112400,619,0x00000004,0x30600C45
0.0358153400,620,0x00000004,0x30600C45
0.0358194400,621,0x00000004,0x30600C45
0.0358235200,622,0x00000004,0x30600C45
0.0358276200,623,0x00000004,0x30600C45
0.0358317200,624,0x00000004,0x30600C45
0.0358358000,625,0x00000004,0x30600C45
0.0358701200,626,0x00000004,0x30600C45
0.0358783000,627,0x00000004,0x30600C45
0.0359472200,628,0x09C00004,0x30602212
0.0359636000,629,0x05400014,0x30602705
0.0359677000,630,0x05400014,0x30602705
0.0359717800,631,0x05400014,0x30602705
0.0359922600,632,0x00000004,0x30600C45
0.0359963400,633,0x00000004,0x30600C45
0.0360004400,634,0x00000004,0x30600C45
0.0360045400,635,0x00000004,0x30600C45
0.0362948800,636,0x62E03E9C,0x30601F44
0.0362989600,637,0x00000004,0x30600C45
0.0363030600,638,0x00000004,0x30600C45
0.0363071600,639,0x00000004,0x30600C45
0.0363112400,640,0x00000004,0x30600C45
0.0363153400,641,0x00000004,0x30600C45
0.0363194400,642,0x00000004,0x30600C45
0.0363235200,643,0x00000004,0x30600C45
0.0363276200,644,0x00000004,0x30600C45
0.0363317200,645,0x00000004,0x30600C45
0.0363358000,646,0x00000004,0x30600C45
0.0363701200,647,0x00000004,0x30600C45
0.0363783000,648,0x00000004,0x30600C45
0.0364472400,649,0x09C00004,0x30602212
0.0364636200,650,0x05400014,0x30602705
0.0364677200,651,0x05400014,0x30602705
0.0364718000,652,0x05400014,0x30602705
0.0364922800,653,0x00000004,0x30600C45
0.0364963800,654,0x00000004,0x30600C45
0.0365004600,655,0x00000004,0x30600C45
0.0365045600,656,0x00000004,0x30600C45
0.0367947800,657,0x6C31640C,0x30692003
0.0367988600,658,0x00000004,0x30600C45
0.0368029600,659,0x00000004,0x30600C45
0.0368070600,660,0x00000004,0x30600C45
0.0368111400,661,0x00000004,0x30600C45
0.0368152400,662,0x00000004,0x30600C45
0.0368193400,663,0x00000004,0x30600C45
0.0368234200,664,0x00000004,0x30600C45
0.0368275200,665,0x00000004,0x30600C45
0.0368316200,666,0x00000004,0x30600C45
0.0368357000,667,0x00000004,0x30600C45
0.0368700200,668,0x00000004,0x30600C45
0.0368782000,669,0x00000004,0x30600C45
0.0369472400,670,0x09C00004,0x30602212
0.0369636000,671,0x05400014,0x30602705
0.0369677000,672,0x05400014,0x30602705
0.0369718000,673,0x05400014,0x30602705
0.0369922600,674,0x00000004,0x30600C45
0.0369963600,675,0x00000004,0x30600C45
0.0370004400,676,0x00000004,0x30600C45
0.0370045400,677,0x00000004,0x30600C45
0.0372948800,678,0x6C31640C,0x3068B206
0.0372989800,679,0x00000004,0x30600C45
0.0373030600,680,0x00000004,0x30600C45
0.0373071600,681,0x00000004,0x30600C45
0.0373112600,682,0x00000004,0x30600C45
0.0373153400,683,0x00000004,0x30600C45
0.0373194400,684,0x00000004,0x30600C45
0.0373235400,685,0x00000004,0x30600C45
0.0373276200,686,0x00000004,0x30600C45
0.0373317200,687,0x00000004,0x30600C45
0.0373358200,688,0x00000004,0x30600C45
0.0373701200,689,0x00000004,0x30600C45
0.0373783200,690,0x00000004,0x30600C45
0.0374472200,691,0x09C00004,0x30602212
0.0374636000,692,0x05400014,0x30602705
0.0374677000,693,0x05400014,0x30602705
0.0374717800,694,0x05400014,0x30602705
0.0374922600,695,0x00000004,0x30600C45
0.0374963400,696,0x00000004,0x30600C45
0.0375004400,697,0x00000004,0x30600C45
0.0375045400,698,0x00000004,0x30600C45
0.0377947800,699,0x6C31640C,0x3068B206
0.0377988800,700,0x00000004,0x30600C45
0.0378029600,701,0x00000004,0x30600C45
0.0378070600,702,0x00000004,0x30600C45
0.0378111600,703,0x00000004,0x30600C45
0.0378152400,704,0x00000004,0x30600C45
0.0378193400,705,0x00000004,0x30600C45
0.0378234400,706,0x00000004,0x30600C45
0.0378275200,707,0x00000004,0x30600C45
0.0378316200,708,0x00000004,0x30600C45
0.0378357200,709,0x00000004,0x30600C45
0.0378700200,710,0x00000004,0x30600C45
0.0378782200,711,0x00000004,0x30600C45
0.0379472200,712,0x09C00004,0x30602212
0.0379636000,713,0x05400014,0x30602705
0.0379677000,714,0x05400014,0x30602705
0.0379717800,715,0x05400014,0x30602705
0.0379922600,716,0x00000004,0x30600C45
0.0379963600,717,0x00000004,0x30600C45
0.0380004400,718,0x00000004,0x30600C45
0.0380045400,719,0x00000004,0x30600C45
0.0382948800,720,0x6C31640C,0x3068B206
0.0382989800,721,0x00000004,0x30600C45
0.0383030800,722,0x00000004,0x30600C45
0.0383071600,723,0x00000004,0x30600C45
0.0383112600,724,0x00000004,0x30600C45
0.0383153600,725,0x00000004,0x30600C45
0.0383194400,726,0x00000004,0x30600C45
0.0383235400,727,0x00000004,0x30600C45
0.0383276400,728,0x00000004,0x30600C45
0.0383317200,729,0x00000004,0x30600C45
0.0383358200,730,0x00000004,0x30600C45
0.0383701400,731,0x00000004,0x30600C45
0.0383783200,732,0x00000004,0x30600C45
0.0384472200,733,0x09C00004,0x30602212
0.0384636000,734,0x05400014,0x30602705
0.0384677000,735,0x05400014,0x30602705
0.0384718000,736,0x05400014,0x30602705
0.0384922600,737,0x00000004,0x30600C45
0.0384963600,738,0x00000004,0x30600C45
0.0385004400,739,0x00000004,0x30600C45
0.0385045400,740,0x00000004,0x30600C45
0.0387947800,741,0x6C716418,0x30692003
0.0387988800,742,0x00000004,0x30600C45
0.0388029800,743,0x00000004,0x30600C45
0.0388070600,744,0x00000004,0x30600C45
0.0388111600,745,0x00000004,0x30600C45
0.0388152600,746,0x00000004,0x30600C45
0.0388193400,747,0x00000004,0x30600C45
0.0388234400,748,0x00000004,0x30600C45
0.0388275400,749,0x00000004,0x30600C45
0.0388316200,750,0x00000004,0x30600C45
0.0388357200,751,0x00000004,0x30600C45
0.0388700400,752,0x00000004,0x30600C45
0.0388782200,753,0x00000004,0x30600C45
0.0389472400,754,0x09C00004,0x30602212
0.0389636200,755,0x05400014,0x30602705
0.0389677200,756,0x05400014,0x30602705
0.0389718000,757,0x05400014,0x30602705
0.0389922800,758,0x00000004,0x30600C45
0.0389963600,759,0x00000004,0x30600C45
0.0390004600,760,0x00000004,0x30600C45
0.0390045600,761,0x00000004,0x30600C45
0.0392949000,762,0x6C716418,0x3068B206
0.0392989800,763,0x00000004,0x30600C45
0.0393030800,764,0x00000004,0x30600C45
0.0393071800,765,0x00000004,0x30600C45
0.0393112600,766,0x00000004,0x30600C45
0.0393153600,767,0x00000004,0x30600C45
0.0393194600,768,0x00000004,0x30600C45
0.0393235400,769,0x00000004,0x30600C45
0.0393276400,770,0x00000004,0x30600C45
0.0393317400,771,0x00000004,0x30600C45
0.0393358200,772,0x00000004,0x30600C45
0.0393701400,773,0x00000004,0x30600C45
0.0393783200,774,0x00000004,0x30600C45
0.0394472400,775,0x09C00004,0x30602212
0.0394636000,776,0x05400014,0x30602705
0.0394677000,777,0x05400014,0x30602705
0.0394718000,778,0x05400014,0x30602705
0.0394922600,779,0x00000004,0x30600C45
0.0394963600,780,0x00000004,0x30600C45
0.0395004600,781,0x00000004,0x30600C45
0.0395045400,782,0x00000004,0x30600C45
0.0397947800,783,0x6C716418,0x3068B206
0.0397988800,784,0x00000004,0x30600C45
0.0398029800,785,0x00000004,0x30600C45
0.0398070800,786,0x00000004,0x30600C45
0.0398111600,787,0x00000004,0x30600C45
0.0398152600,788,0x00000004,0x30600C45
0.0398193600,789,0x00000004,0x30600C45
0.0398234400,790,0x00000004,0x30600C45
0.0398275400,791,0x00000004,0x30600C45
0.0398316400,792,0x00000004,0x30600C45
0.0398357200,793,0x00000004,0x30600C45
0.0398700400,794,0x00000004,0x30600C45
0.0398782200,795,0x00000004,0x30600C45
0.0399472400,796,0x09C00004,0x30602212
0.0399636200,797,0x05400014,0x30602705
0.0399677200,798,0x05400014,0x30602705
0.0399718200,799,0x05400014,0x30602705
0.0399922800,800,0x00000004,0x30600C45
0.0399963800,801,0x00000004,0x30600C45
0.0400004600,802,0x00000004,0x30600C45
0.0400045600,803,0x00000004,0x30600C45
0.0402951600,804,0x6C716418,0x3068B206
0.0402992600,805,0x00000004,0x30600C45
0.0403033400,806,0x00000004,0x30600C45
0.0403074400,807,0x00000004,0x30600C45
0.0403115400,808,0x00000004,0x30600C45
0.0403156200,809,0x00000004,0x30600C45
0.0403197200,810,0x00000004,0x30600C45
0.0403238200,811,0x00000004,0x30600C45
0.0403279000,812,0x00000004,0x30600C45
0.0403320000,813,0x00000004,0x30600C45
0.0403361000,814,0x00000004,0x30600C45
0.0403704000,815,0x00000004,0x30600C45
0.0403786000,816,0x00000004,0x30600C45
0.0404474400,817,0x09C00004,0x30602212
0.0404638200,818,0x05400014,0x30602705
0.0404679000,819,0x05400014,0x30602705
0.0404720000,820,0x05400014,0x30602705
0.0404924800,821,0x00000004,0x30600C45
0.0404965600,822,0x00000004,0x30600C45
0.0405006600,823,0x00000004,0x30600C45
0.0405047600,824,0x00000004,0x30600C45
0.0407948000,825,0x6CB16408,0x30692003
0.0407988800,826,0x00000004,0x30600C45
0.0408029800,827,0x00000004,0x30600C45
0.0408070800,828,0x00000004,0x30600C45
0.0408111800,829,0x00000004,0x30600C45
0.0408152600,830,0x00000004,0x30600C45
0.0408193600,831,0x00000004,0x30600C45
0.0408234600,832,0x00000004,0x30600C45
0.0408275400,833,0x00000004,0x30600C45
0.0408316400,834,0x00000004,0x30600C45
0.0408357400,835,0x00000004,0x30600C45
0.0408700400,836,0x00000004,0x30600C45
0.0408782400,837,0x00000004,0x30600C45
0.0409472000,838,0x09C00004,0x30602212
0.0409635600,839,0x05400014,0x30602705
0.0409676600,840,0x05400014,0x30602705
0.0409717600,841,0x05400014,0x30602705
0.0409922200,842,0x00000004,0x30600C45
0.0409963200,843,0x00000004,0x30600C45
0.0410004200,844,0x00000004,0x30600C45
0.0410045000,845,0x00000004,0x30600C45
0.0412949000,846,0x6CB16408,0x3068B206
0.0412990000,847,0x00000004,0x30600C45
0.0413030800,848,0x00000004,0x30600C45
0.0413071800,849,0x00000004,0x30600C45
0.0413112800,850,0x00000004,0x30600C45
0.0413153800,851,0x00000004,0x30600C45
0.0413194600,852,0x00000004,0x30600C45
0.0413235600,853,0x00000004,0x30600C45
0.0413276600,854,0x00000004,0x30600C45
0.0413317400,855,0x00000004,0x30600C45
0.0413358400,856,0x00000004,0x30600C45
0.0413701600,857,0x00000004,0x30600C45
0.0413783400,858,0x00000004,0x30600C45
0.0414472600,859,0x09C00004,0x30602212
0.0414636400,860,0x05400014,0x30602705
0.0414677400,861,0x05400014,0x30602705
0.0414718400,862,0x05400014,0x30602705
0.0414923000,863,0x00000004,0x30600C45
0.0414964000,864,0x00000004,0x30600C45
0.0415004800,865,0x00000004,0x30600C45
0.0415045800,866,0x00000004,0x30600C45
0.0417948000,867,0x6CB16408,0x3068B206
0.0417989000,868,0x00000004,0x30600C45
0.0418029800,869,0x00000004,0x30600C45
0.0418070800,870,0x00000004,0x30600C45
0.0418111800,871,0x00000004,0x30600C45
0.0418152800,872,0x00000004,0x30600C45
0.0418193600,873,0x00000004,0x30600C45
0.0418234600,874,0x00000004,0x30600C45
0.0418275600,875,0x00000004,0x30600C45
0.0418316400,876,0x00000004,0x30600C45
0.0418357400,877,0x00000004,0x30600C45
0.0418700600,878,0x00000004,0x30600C45
0.0418782400,879,0x00000004,0x30600C45
0.0419472200,880,0x09C00004,0x30602212
0.0419636000,881,0x05400014,0x30602705
0.0419676800,882,0x05400014,0x30602705
0.0419717800,883,0x05400014,0x30602705
0.0419922600,884,0x00000004,0x30600C45
0.0419963400,885,0x00000004,0x30600C45
0.0420004400,886,0x00000004,0x30600C45
0.0420045400,887,0x00000004,0x30600C45
0.0422949000,888,0x6CB16408,0x3068B206
0.0422990000,889,0x00000004,0x30600C45
0.0423031000,890,0x00000004,0x30600C45
0.0423071800,891,0x00000004,0x30600C45
0.0423112800,892,0x00000004,0x30600C45
0.0423153800,893,0x00000004,0x30600C45
0.0423194800,894,0x00000004,0x30600C45
0.0423235600,895,0x00000004,0x30600C45
0.0423276600,896,0x00000004,0x30600C45
0.0423317600,897,0x00000004,0x30600C45
0.0423358400,898,0x00000004,0x30600C45
0.0423701600,899,0x00000004,0x30600C45
0.0423783400,900,0x00000004,0x30600C45
0.0424472600,901,0x09C00004,0x30602212
0.0424636200,902,0x05400014,0x30602705
0.0424677200,903,0x05400014,0x30602705
0.0424718200,904,0x05400014,0x30602705
0.0424922800,905,0x00000004,0x30600C45
0.0424963800,906,0x00000004,0x30600C45
0.0425004800,907,0x00000004,0x30600C45
0.0425045600,908,0x00000004,0x30600C45
0.0427948000,909,0x6CF1641C,0x30692003
0.0427989000,910,0x00000004,0x30600C45
0.0428030000,911,0x00000004,0x30600C45
0.0428070800,912,0x00000004,0x30600C45
0.0428111800,913,0x00000004,0x30600C45
0.0428152800,914,0x00000004,0x30600C45
0.0428193800,915,0x00000004,0x30600C45
0.0428234600,916,0x00000004,0x30600C45
0.0428275600,917,0x00000004,0x30600C45
0.0428316600,918,0x00000004,0x30600C45
0.0428357400,919,0x00000004,0x30600C45
0.0428700600,920,0x00000004,0x30600C45
0.0428782400,921,0x00000004,0x30600C45
0.0429472200,922,0x09C00004,0x30602212
0.0429636000,923,0x05400014,0x30602705
0.0429677000,924,0x05400014,0x30602705
0.0429717800,925,0x05400014,0x30602705
0.0429922600,926,0x00000004,0x30600C45
0.0429963600,927,0x00000004,0x30600C45
0.0430004400,928,0x00000004,0x30600C45
0.0430045400,929,0x00000004,0x30600C45
0.0432949200,930,0x6CF1641C,0x3068B206
0.0432990000,931,0x00000004,0x30600C45
0.0433031000,932,0x00000004,0x30600C45
0.0433072000,933,0x00000004,0x30600C45
0.0433112800,934,0x00000004,0x30600C45
0.0433153800,935,0x00000004,0x30600C45
0.0433194800,936,0x00000004,0x30600C45
0.0433235800,937,0x00000004,0x30600C45
0.0433276600,938,0x00000004,0x30600C45
0.0433317600,939,0x00000004,0x30600C45
0.0433358600,940,0x00000004,0x30600C45
0.0433701600,941,0x00000004,0x30600C45
0.0433783600,942,0x00000004,0x30600C45
0.0434472600,943,0x09C00004,0x30602212
0.0434636400,944,0x05400014,0x30602705
0.0434677200,945,0x05400014,0x30602705
0.0434718200,946,0x05400014,0x30602705
0.0434923000,947,0x00000004,0x30600C45
0.0434963800,948,0x00000004,0x30600C45
0.0435004800,949,0x00000004,0x30600C45
0.0435045800,950,0x00000004,0x30600C45
0.0437948200,951,0x6CF1641C,0x3068B206
0.0437989000,952,0x00000004,0x30600C45
0.0438030000,953,0x00000004,0x30600C45
0.0438071000,954,0x00000004,0x30600C45
0.0438111800,955,0x00000004,0x30600C45
0.0438152800,956,0x00000004,0x30600C45
0.0438193800,957,0x00000004,0x30600C45
0.0438234800,958,0x00000004,0x30600C45
0.0438275600,959,0x00000004,0x30600C45
0.0438316600,960,0x00000004,0x30600C45
0.0438357600,961,0x00000004,0x30600C45
0.0438700600,962,0x00000004,0x30600C45
0.0438782600,963,0x00000004,0x30600C45
0.0439472800,964,0x09C00004,0x30602212
0.0439636400,965,0x05400014,0x30602705
0.0439677400,966,0x05400014,0x30602705
0.0439718400,967,0x05400014,0x30602705
0.0439923000,968,0x00000004,0x30600C45
0.0439964000,969,0x00000004,0x30600C45
0.0440005000,970,0x00000004,0x30600C45
0.0440045800,971,0x00000004,0x30600C45
0.0442949200,972,0x6CF1641C,0x3068B206
0.0442990200,973,0x00000004,0x30600C45
0.0443031000,974,0x00000004,0x30600C45
0.0443072000,975,0x00000004,0x30600C45
0.0443113000,976,0x00000004,0x30600C45
0.0443154000,977,0x00000004,0x30600C45
0.0443194800,978,0x00000004,0x30600C45
0.0443235800,979,0x00000004,0x30600C45
0.0443276800,980,0x00000004,0x30600C45
0.0443317600,981,0x00000004,0x30600C45
0.0443358600,982,0x00000004,0x30600C45
0.0443701800,983,0x00000004,0x30600C45
0.0443783600,984,0x00000004,0x30600C45
0.0444472800,985,0x09C00004,0x30602212
0.0444636600,986,0x05400014,0x30602705
0.0444677600,987,0x05400014,0x30602705
0.0444718400,988,0x05400014,0x30602705
0.0444923200,989,0x00000004,0x30600C45
0.0444964200,990,0x00000004,0x30600C45
0.0445005000,991,0x00000004,0x30600C45
0.0445046000,992,0x00000004,0x30600C45
0.0447948200,993,0x6D316404,0x30692003
0.0447989200,994,0x00000004,0x30600C45
0.0448030000,995,0x00000004,0x30600C45
0.0448071000,996,0x00000004,0x30600C45
0.0448112000,997,0x00000004,0x30600C45
0.0448152800,998,0x00000004,0x30600C45
0.0448193800,999,0x00000004,0x30600C45
0.0448234800,1000,0x00000004,0x30600C45
0.0448275800,1001,0x00000004,0x30600C45
0.0448316600,1002,0x00000004,0x30600C45
0.0448357600,1003,0x00000004,0x30600C45
0.0448700800,1004,0x00000004,0x30600C45
0.0448782600,1005,0x00000004,0x30600C45
0.0449472400,1006,0x09C00004,0x30602212
0.0449636200,1007,0x05400014,0x30602705
0.0449677000,1008,0x05400014,0x30602705
0.0449718000,1009,0x05400014,0x30602705
0.0449922600,1010,0x00000004,0x30600C45
0.0449963600,1011,0x00000004,0x30600C45
0.0450004600,1012,0x00000004,0x30600C45
0.0450045600,1013,0x00000004,0x30600C45
0.0452952400,1014,0x6D316404,0x3068B206
0.0452993400,1015,0x00000004,0x30600C45
0.0453034200,1016,0x00000004,0x30600C45
0.0453075200,1017,0x00000004,0x30600C45
0.0453116200,1018,0x00000004,0x30600C45
0.0453157000,1019,0x00000004,0x30600C45
0.0453198000,1020,0x00000004,0x30600C45
0.0453239000,1021,0x00000004,0x30600C45
0.0453279800,1022,0x00000004,0x30600C45
0.0453320800,1023,0x00000004,0x30600C45
0.0453361800,1024,0x00000004,0x30600C45
0.0453705000,1025,0x00000004,0x30600C45
0.0453786800,1026,0x00000004,0x30600C45
0.0454474400,1027,0x09C00004,0x30602212
0.0454638200,1028,0x05400014,0x30602705
0.0454679000,1029,0x05400014,0x30602705
0.0454720000,1030,0x05400014,0x30602705
0.0454924800,1031,0x00000004,0x30600C45
0.0454965600,1032,0x00000004,0x30600C45
0.0455006600,1033,0x00000004,0x30600C45
0.0455047600,1034,0x00000004,0x30600C45
0.0457948200,1035,0x6D316404,0x3068B206
0.0457989200,1036,0x00000004,0x30600C45
0.0458030200,1037,0x00000004,0x30600C45
0.0458071000,1038,0x00000004,0x30600C45
0.0458112000,1039,0x00000004,0x30600C45
0.0458153000,1040,0x00000004,0x30600C45
0.0458193800,1041,0x00000004,0x30600C45
0.0458234800,1042,0x00000004,0x30600C45
0.0458275800,1043,0x00000004,0x30600C45
0.0458316800,1044,0x00000004,0x30600C45
0.0458357600,1045,0x00000004,0x30600C45
0.0458700800,1046,0x00000004,0x30600C45
0.0458782600,1047,0x00000004,0x30600C45
0.0459472600,1048,0x09C00004,0x30602212
0.0459636400,1049,0x05400014,0x30602705
0.0459677200,1050,0x05400014,0x30602705
0.0459718200,1051,0x05400014,0x30602705
0.0459922800,1052,0x00000004,0x30600C45
0.0459963800,1053,0x00000004,0x30600C45
0.0460004800,1054,0x00000004,0x30600C45
0.0460045600,1055,0x00000004,0x30600C45
0.0462949400,1056,0x6D316404,0x3068B206
0.0462990200,1057,0x00000004,0x30600C45
0.0463031200,1058,0x00000004,0x30600C45
0.0463072200,1059,0x00000004,0x30600C45
0.0463113000,1060,0x00000004,0x30600C45
0.0463154000,1061,0x00000004,0x30600C45
0.0463195000,1062,0x00000004,0x30600C45
0.0463235800,1063,0x00000004,0x30600C45
0.0463276800,1064,0x00000004,0x30600C45
0.0463317800,1065,0x00000004,0x30600C45
0.0463358800,1066,0x00000004,0x30600C45
0.0463701800,1067,0x00000004,0x30600C45
0.0463783800,1068,0x00000004,0x30600C45
0.0464472800,1069,0x09C00004,0x30602212
0.0464636600,1070,0x05400014,0x30602705
0.0464677400,1071,0x05400014,0x30602705
0.0464718400,1072,0x05400014,0x30602705
0.0464923000,1073,0x00000004,0x30600C45
0.0464964000,1074,0x00000004,0x30600C45
0.0465005000,1075,0x00000004,0x30600C45
0.0465046000,1076,0x00000004,0x30600C45
0.0467948400,1077,0x6D716410,0x30692003
0.0467989200,1078,0x00000004,0x30600C45
0.0468030200,1079,0x00000004,0x30600C45
0.0468071200,1080,0x00000004,0x30600C45
0.0468112000,1081,0x00000004,0x30600C45
0.0468153000,1082,0x00000004,0x30600C45
0.0468194000,1083,0x00000004,0x30600C45
0.0468234800,1084,0x00000004,0x30600C45
0.0468275800,1085,0x00000004,0x30600C45
0.0468316800,1086,0x00000004,0x30600C45
0.0468357800,1087,0x00000004,0x30600C45
0.0468700800,1088,0x00000004,0x30600C45
0.0468782800,1089,0x00000004,0x30600C45
0.0469472200,1090,0x09C00004,0x30602212
0.0469636000,1091,0x05400014,0x30602705
0.0469677000,1092,0x05400014,0x30602705
0.0469718000,1093,0x05400014,0x30602705
0.0469922600,1094,0x00000004,0x30600C45
0.0469963600,1095,0x00000004,0x30600C45
0.0470004400,1096,0x00000004,0x30600C45
0.0470045400,1097,0x00000004,0x30600C45
0.0472950200,1098,0x6D716410,0x3068B206
0.0472991200,1099,0x00000004,0x30600C45
0.0473032000,1100,0x00000004,0x30600C45
0.0473073000,1101,0x00000004,0x30600C45
0.0473114000,1102,0x00000004,0x30600C45
0.0473155000,1103,0x00000004,0x30600C45
0.0473195800,1104,0x00000004,0x30600C45
0.0473236800,1105,0x00000004,0x30600C45
0.0473277800,1106,0x00000004,0x30600C45
0.0473318600,1107,0x00000004,0x30600C45
0.0473359600,1108,0x00000004,0x30600C45
0.0473702800,1109,0x00000004,0x30600C45
0.0473784600,1110,0x00000004,0x30600C45
0.0474472800,1111,0x09C00004,0x30602212
0.0474636600,1112,0x05400014,0x30602705
0.0474677600,1113,0x05400014,0x30602705
0.0474718400,1114,0x05400014,0x30602705
0.0474923200,1115,0x00000004,0x30600C45
0.0474964000,1116,0x00000004,0x30600C45
0.0475005000,1117,0x00000004,0x30600C45
0.0475046000,1118,0x00000004,0x30600C45
0.0477948400,1119,0x6D716410,0x3068B206
0.0477989400,1120,0x00000004,0x30600C45
0.0478030200,1121,0x00000004,0x30600C45
0.0478071200,1122,0x00000004,0x30600C45
0.0478112200,1123,0x00000004,0x30600C45
0.0478153000,1124,0x00000004,0x30600C45
0.0478194000,1125,0x00000004,0x30600C45
0.0478235000,1126,0x00000004,0x30600C45
0.0478275800,1127,0x00000004,0x30600C45
0.0478316800,1128,0x00000004,0x30600C45
0.0478357800,1129,0x00000004,0x30600C45
0.0478700800,1130,0x00000004,0x30600C45
0.0478782800,1131,0x00000004,0x30600C45
0.0479472400,1132,0x09C00004,0x30602212
0.0479636000,1133,0x05400014,0x30602705
0.0479677000,1134,0x05400014,0x30602705
0.0479718000,1135,0x05400014,0x30602705
0.0479922600,1136,0x00000004,0x30600C45
0.0479963600,1137,0x00000004,0x30600C45
0.0480004600,1138,0x00000004,0x30600C45
0.0480045400,1139,0x00000004,0x30600C45
0.0482949400,1140,0x6D716410,0x3068B206
0.0482990400,1141,0x00000004,0x30600C45
0.0483031400,1142,0x00000004,0x30600C45
0.0483072200,1143,0x00000004,0x30600C45
0.0483113200,1144,0x00000004,0x30600C45
0.0483154200,1145,0x00000004,0x30600C45
0.0483195000,1146,0x00000004,0x30600C45
0.0483236000,1147,0x00000004,0x30600C45
0.0483277000,1148,0x00000004,0x30600C45
0.0483317800,1149,0x00000004,0x30600C45
0.0483358800,1150,0x00000004,0x30600C45
0.0483702000,1151,0x00000004,0x30600C45
0.0483783800,1152,0x00000004,0x30600C45
0.0484473000,1153,0x09C00004,0x30602212
0.0484636600,1154,0x05400014,0x30602705
0.0484677600,1155,0x05400014,0x30602705
0.0484718600,1156,0x05400014,0x30602705
0.0484923200,1157,0x00000004,0x30600C45
0.0484964200,1158,0x00000004,0x30600C45
0.0485005000,1159,0x00000004,0x30600C45
0.0485046000,1160,0x00000004,0x30600C45
0.0487948400,1161,0x07800038,0x30600005
0.0487989400,1162,0x08000030,0x30600005
0.0488030400,1163,0x00000004,0x30600C45
0.0488071200,1164,0x00000004,0x30600C45
0.0488112200,1165,0x00000004,0x30600C45
0.0488153200,1166,0x00000004,0x30600C45
0.0488194000,1167,0x00000004,0x30600C45
0.0488235000,1168,0x00000004,0x30600C45
0.0488276000,1169,0x00000004,0x30600C45
0.0488316800,1170,0x00000004,0x30600C45
0.0488357800,1171,0x00000004,0x30600C45
0.0488701000,1172,0x00000004,0x30600C45
0.0488782800,1173,0x00000004,0x30600C45
0.0489472400,1174,0x09C00004,0x30602212
0.0489636200,1175,0x05400014,0x30602705
0.0489677000,1176,0x05400014,0x30602705
0.0489718000,1177,0x05400014,0x30602705
0.0489922800,1178,0x00000004,0x30600C45
0.0489963600,1179,0x00000004,0x30600C45
0.0490004600,1180,0x00000004,0x30600C45
0.0490045600,1181,0x00000004,0x30600C45
0.0492949600,1182,0x04400218,0x30600005
0.0492990400,1183,0x00000004,0x70600C45
0.0493031400,1184,0x00000004,0x70600C45
0.0493072400,1185,0x00000004,0x70600C45
0.0493113200,1186,0x00000004,0x70600C45
0.0493154200,1187,0x00000004,0x70600C45
0.0493195200,1188,0x00000004,0x70600C45
0.0493236000,1189,0x00000004,0x70600C45
0.0493277000,1190,0x00000004,0x70600C45
0.0493318000,1191,0x00000004,0x70600C45
0.0493358800,1192,0x00000004,0x70600C45
0.0493702000,1193,0x00000004,0x70600C45
0.0493784000,1194,0x00000004,0x70600C45
0.0494473200,1195,0x09C00004,0x70602212
0.0494637000,1196,0x05400014,0x70602705
0.0494678000,1197,0x05400014,0x70602705
0.0494719000,1198,0x05400014,0x70602705
0.0494923600,1199,0x00000004,0x70600C45
0.0494964600,1200,0x00000004,0x70600C45
0.0495005400,1201,0x00000004,0x70600C45
0.0495046400,1202,0x00000004,0x70600C45
0.0497948600,1203,0x08800034,0x70600005
0.0497989400,1204,0x8000000C,0x73F01F0E
0.0498030400,1205,0x00000004,0x70600C45
0.0498071400,1206,0x00000004,0x70600C45
0.0498112200,1207,0x00000004,0x70600C45
0.0498153200,1208,0x00000004,0x70600C45
0.0498194200,1209,0x00000004,0x70600C45
0.0498235000,1210,0x00000004,0x70600C45
0.0498276000,1211,0x00000004,0x70600C45
0.0498317000,1212,0x00000004,0x70600C45
0.0498357800,1213,0x00000004,0x70600C45
0.0498701000,1214,0x00000004,0x70600C45
0.0498782800,1215,0x00000004,0x70600C45
0.0499472400,1216,0x09C00004,0x70602212
0.0499636200,1217,0x05400014,0x70602705
0.0499677200,1218,0x05400014,0x70602705
0.0499718000,1219,0x05400014,0x70602705
0.0499922800,1220,0x00000004,0x70600C45
0.0499963800,1221,0x00000004,0x70600C45
0.0500004600,1222,0x00000004,0x70600C45
0.0500045600,1223,0x00000004,0x70600C45
0.0502952200,1224,0x08800040,0x70600005
0.0502993200,1225,0x8000000C,0x73F01F0E
0.0503034000,1226,0x00000004,0x70600C45
0.0503075000,1227,0x00000004,0x70600C45
0.0503116000,1228,0x00000004,0x70600C45
0.0503156800,1229,0x00000004,0x70600C45
0.0503197800,1230,0x00000004,0x70600C45
0.0503238800,1231,0x00000004,0x70600C45
0.0503279600,1232,0x00000004,0x70600C45
0.0503320600,1233,0x00000004,0x70600C45
0.0503361600,1234,0x00000004,0x70600C45
0.0503704600,1235,0x00000004,0x70600C45
0.0503786600,1236,0x00000004,0x70600C45
0.0504474400,1237,0x09C00004,0x70602212
0.0504638200,1238,0x05400014,0x70602705
0.0504679000,1239,0x05400014,0x70602705
0.0504720000,1240,0x05400014,0x70602705
0.0504924800,1241,0x00000004,0x70600C45
0.0504965600,1242,0x00000004,0x70600C45
0.0505006600,1243,0x00000004,0x70600C45
0.0505047600,1244,0x00000004,0x70600C45
0.0507948600,1245,0x08800084,0x70600005
0.0507989600,1246,0x8000000C,0x73F01F0E
0.0508030400,1247,0x00000004,0x70600C45
0.0508071400,1248,0x00000004,0x70600C45
0.0508112400,1249,0x00000004,0x70600C45
0.0508153200,1250,0x00000004,0x70600C45
0.0508194200,1251,0x00000004,0x70600C45
0.0508235200,1252,0x00000004,0x70600C45
0.0508276000,1253,0x00000004,0x70600C45
0.0508317000,1254,0x00000004,0x70600C45
0.0508358000,1255,0x00000004,0x70600C45
0.0508701000,1256,0x00000004,0x70600C45
0.0508783000,1257,0x00000004,0x70600C45
0.0509472600,1258,0x09C00004,0x70602212
0.0509636200,1259,0x05400014,0x70602705
0.0509677200,1260,0x05400014,0x70602705
0.0509718200,1261,0x05400014,0x70602705
0.0509922800,1262,0x00000004,0x70600C45
0.0509963800,1263,0x00000004,0x70600C45
0.0510004800,1264,0x00000004,0x70600C45
0.0510045600,1265,0x00000004,0x70600C45
0.0512949600,1266,0x0880010C,0x70600005
0.0512990600,1267,0x8000000C,0x73F01F0E
0.0513031600,1268,0x00000004,0x70600C45
0.0513072400,1269,0x00000004,0x70600C45
0.0513113400,1270,0x00000004,0x70600C45
0.0513154400,1271,0x00000004,0x70600C45
0.0513195200,1272,0x00000004,0x70600C45
0.0513236200,1273,0x00000004,0x70600C45
0.0513277200,1274,0x00000004,0x70600C45
0.0513318000,1275,0x00000004,0x70600C45
0.0513359000,1276,0x00000004,0x70600C45
0.0513702200,1277,0x00000004,0x70600C45
0.0513784000,1278,0x00000004,0x70600C45
0.0514473000,1279,0x09C00004,0x70602212
0.0514636800,1280,0x05400014,0x70602705
0.0514677800,1281,0x05400014,0x70602705
0.0514718800,1282,0x05400014,0x70602705
0.0514923400,1283,0x00000004,0x70600C45
0.0514964400,1284,0x00000004,0x70600C45
0.0515005200,1285,0x00000004,0x70600C45
0.0515046200,1286,0x00000004,0x70600C45
0.0517948600,1287,0x0880021C,0x70600005
0.0517989600,1288,0x8000000C,0x73F01F0E
0.0518030600,1289,0x00000004,0x70600C45
0.0518071400,1290,0x00000004,0x70600C45
0.0518112400,1291,0x00000004,0x70600C45
0.0518153400,1292,0x00000004,0x70600C45
0.0518194200,1293,0x00000004,0x70600C45
0.0518235200,1294,0x00000004,0x70600C45
0.0518276200,1295,0x00000004,0x70600C45
0.0518317000,1296,0x00000004,0x70600C45
0.0518358000,1297,0x00000004,0x70600C45
0.0518701200,1298,0x00000004,0x70600C45
0.0518783000,1299,0x00000004,0x70600C45
0.0519472800,1300,0x09C00004,0x70602212
0.0519636400,1301,0x05400014,0x70602705
0.0519677400,1302,0x05400014,0x70602705
0.0519718400,1303,0x05400014,0x70602705
0.0519923000,1304,0x00000004,0x70600C45
0.0519964000,1305,0x00000004,0x70600C45
0.0520004800,1306,0x00000004,0x70600C45
0.0520045800,1307,0x00000004,0x70600C45
0.0522949800,1308,0x08800410,0x70600005
0.0522990600,1309,0x8000000C,0x73F01F0E
0.0523031600,1310,0x00000004,0x70600C45
0.0523072600,1311,0x00000004,0x70600C45
0.0523113400,1312,0x00000004,0x70600C45
0.0523154400,1313,0x00000004,0x70600C45
0.0523195400,1314,0x00000004,0x70600C45
0.0523236200,1315,0x00000004,0x70600C45
0.0523277200,1316,0x00000004,0x70600C45
0.0523318200,1317,0x00000004,0x70600C45
0.0523359000,1318,0x00000004,0x70600C45
0.0523702200,1319,0x00000004,0x70600C45
0.0523784000,1320,0x00000004,0x70600C45
0.0524473200,1321,0x09C00004,0x70602212
0.0524637000,1322,0x05400014,0x70602705
0.0524677800,1323,0x05400014,0x70602705
0.0524718800,1324,0x05400014,0x70602705
0.0524923400,1325,0x00000004,0x70600C45
0.0524964400,1326,0x00000004,0x70600C45
0.0525005400,1327,0x00000004,0x70600C45
0.0525046200,1328,0x00000004,0x70600C45
0.0527948800,1329,0x08800808,0x70600005
0.0527989600,1330,0x8000000C,0x73F01F0E
0.0528030600,1331,0x00000004,0x70600C45
0.0528071600,1332,0x00000004,0x70600C45
0.0528112400,1333,0x00000004,0x70600C45
0.0528153400,1334,0x00000004,0x70600C45
0.0528194400,1335,0x00000004,0x70600C45
0.0528235200,1336,0x00000004,0x70600C45
0.0528276200,1337,0x00000004,0x70600C45
0.0528317200,1338,0x00000004,0x70600C45
0.0528358000,1339,0x00000004,0x70600C45
0.0528701200,1340,0x00000004,0x70600C45
0.0528783000,1341,0x00000004,0x70600C45
0.0529472800,1342,0x09C00004,0x70602212
0.0529636600,1343,0x05400014,0x70602705
0.0529677400,1344,0x05400014,0x70602705
0.0529718400,1345,0x05400014,0x70602705
0.0529923000,1346,0x00000004,0x70600C45
0.0529964000,1347,0x00000004,0x70600C45
0.0530005000,1348,0x00000004,0x70600C45
0.0530045800,1349,0x00000004,0x70600C45
0.0532949800,1350,0x08801014,0x70600005
0.0532990800,1351,0x8000000C,0x73F01F0E
0.0533031600,1352,0x00000004,0x70600C45
0.0533072600,1353,0x00000004,0x70600C45
0.0533113600,1354,0x00000004,0x70600C45
0.0533154400,1355,0x00000004,0x70600C45
0.0533195400,1356,0x00000004,0x70600C45
0.0533236400,1357,0x00000004,0x70600C45
0.0533277200,1358,0x00000004,0x70600C45
0.0533318200,1359,0x00000004,0x70600C45
0.0533359200,1360,0x00000004,0x70600C45
0.0533702200,1361,0x00000004,0x70600C45
0.0533784200,1362,0x00000004,0x70600C45
0.0534473600,1363,0x09C00004,0x70602212
0.0534637200,1364,0x05400014,0x70602705
0.0534678200,1365,0x05400014,0x70602705
0.0534719200,1366,0x05400014,0x70602705
0.0534923800,1367,0x00000004,0x70600C45
0.0534964800,1368,0x00000004,0x70600C45
0.0535005800,1369,0x00000004,0x70600C45
0.0535046600,1370,0x00000004,0x70600C45
0.0537948800,1371,0x08802000,0x70600005
0.0537989600,1372,0x8000000C,0x73F01F0E
0.0538030600,1373,0x00000004,0x70600C45
0.0538071600,1374,0x00000004,0x70600C45
0.0538112600,1375,0x00000004,0x70600C45
0.0538153400,1376,0x00000004,0x70600C45
0.0538194400,1377,0x00000004,0x70600C45
0.0538235400,1378,0x00000004,0x70600C45
0.0538276200,1379,0x00000004,0x70600C45
0.0538317200,1380,0x00000004,0x70600C45
0.0538358200,1381,0x00000004,0x70600C45
0.0538701200,1382,0x00000004,0x70600C45
0.0538783200,1383,0x00000004,0x70600C45
0.0539472800,1384,0x09C00004,0x70602212
0.0539636400,1385,0x05400014,0x70602705
0.0539677400,1386,0x05400014,0x70602705
0.0539718400,1387,0x05400014,0x70602705
0.0539923000,1388,0x00000004,0x70600C45
0.0539964000,1389,0x00000004,0x70600C45
0.0540005000,1390,0x00000004,0x70600C45
0.0540045800,1391,0x00000004,0x70600C45
0.0542949800,1392,0x0440001C,0x70600005
0.0542990800,1393,0x05000000,0x70600005
0.0543031800,1394,0x00000004,0x70600C45
0.0543072600,1395,0x00000004,0x70600C45
0.0543113600,1396,0x00000004,0x70600C45
0.0543154600,1397,0x00000004,0x70600C45
0.0543195400,1398,0x00000004,0x70600C45
0.0543236400,1399,0x00000004,0x70600C45
0.0543277400,1400,0x00000004,0x70600C45
0.0543318200,1401,0x00000004,0x70600C45
0.0543359200,1402,0x00000004,0x70600C45
0.0543702400,1403,0x00000004,0x70600C45
0.0543784200,1404,0x00000004,0x70600C45
0.0544473200,1405,0x09C00004,0x70602212
0.0544637000,1406,0x05400014,0x70602705
0.0544678000,1407,0x05400014,0x70602705
0.0544718800,1408,0x05400014,0x70602705
0.0544923600,1409,0x00000004,0x70600C45
0.0544964600,1410,0x00000004,0x70600C45
0.0545005400,1411,0x00000004,0x70600C45
0.0545046400,1412,0x00000004,0x70600C45
0.0547948800,1413,0x07800014,0x70600005
0.0547989800,1414,0x0800001C,0x70600005
0.0548030800,1415,0x00000004,0x70600C45
0.0548071600,1416,0x00000004,0x70600C45
0.0548112600,1417,0x00000004,0x70600C45
0.0548153600,1418,0x00000004,0x70600C45
0.0548194400,1419,0x00000004,0x70600C45
0.0548235400,1420,0x00000004,0x70600C45
0.0548276400,1421,0x00000004,0x70600C45
0.0548317200,1422,0x00000004,0x70600C45
0.0548358200,1423,0x00000004,0x70600C45
0.0548701400,1424,0x00000004,0x70600C45
0.0548783200,1425,0x00000004,0x70600C45
0.0549472800,1426,0x09C00004,0x70602212
0.0549636600,1427,0x05400014,0x70602705
0.0549677400,1428,0x05400014,0x70602705
0.0549718400,1429,0x05400014,0x70602705
0.0549923000,1430,0x00000004,0x70600C45
0.0549964000,1431,0x00000004,0x70600C45
0.0550005000,1432,0x00000004,0x70600C45
0.0550046000,1433,0x00000004,0x70600C45
0.0552999600,1434,0x07800014,0x70600005
0.0553040600,1435,0x0800001C,0x70600005
0.0553081600,1436,0x00000004,0x70600C45
0.0553122600,1437,0x00000004,0x70600C45
0.0553163400,1438,0x00000004,0x70600C45
0.0553204400,1439,0x00000004,0x70600C45
0.0553245400,1440,0x00000004,0x70600C45
0.0553286200,1441,0x00000004,0x70600C45
0.0553327200,1442,0x00000004,0x70600C45
0.0553368200,1443,0x00000004,0x70600C45
0.0553409000,1444,0x00000004,0x70600C45
0.0553752200,1445,0x00000004,0x70600C45
0.0553834000,1446,0x00000004,0x70600C45
0.0554473600,1447,0x09C00004,0x70602212
0.0554637400,1448,0x05400014,0x70602705
0.0554678200,1449,0x05400014,0x70602705
0.0554719200,1450,0x05400014,0x70602705
0.0554923800,1451,0x00000004,0x70600C45
0.0554964800,1452,0x00000004,0x70600C45
0.0555005800,1453,0x00000004,0x70600C45
0.0555046600,1454,0x00000004,0x70600C45
0.0557948800,1455,0x07800014,0x70600005
0.0557989800,1456,0x00000004,0x70600C45
0.0558030800,1457,0x00000004,0x70600C45
0.0558071600,1458,0x00000004,0x70600C45
0.0558112600,1459,0x00000004,0x70600C45
0.0558153600,1460,0x00000004,0x70600C45
0.0558194600,1461,0x00000004,0x70600C45
0.0558235400,1462,0x00000004,0x70600C45
0.0558276400,1463,0x00000004,0x70600C45
0.0558317400,1464,0x00000004,0x70600C45
0.0558358200,1465,0x00000004,0x70600C45
0.0558701400,1466,0x00000004,0x70600C45
0.0558783200,1467,0x00000004,0x70600C45
0.0559472800,1468,0x09C00004,0x70602212
0.0559636600,1469,0x05400014,0x70602705
0.0559677600,1470,0x05400014,0x70602705
0.0559718400,1471,0x05400014,0x70602705
0.0559923200,1472,0x00000004,0x70600C45
0.0559964000,1473,0x00000004,0x70600C45
0.0560005000,1474,0x00000004,0x70600C45
0.0560046000,1475,0x00000004,0x70600C45
0.0562950000,1476,0x0800001C,0x70600005
0.0562990800,1477,0x00000004,0x70600C45
0.0563031800,1478,0x00000004,0x70600C45
0.0563072800,1479,0x00000004,0x70600C45
0.0563113800,1480,0x00000004,0x70600C45
0.0563154600,1481,0x00000004,0x70600C45
0.0563195600,1482,0x00000004,0x70600C45
0.0563236600,1483,0x00000004,0x70600C45
0.0563277400,1484,0x00000004,0x70600C45
0.0563318400,1485,0x00000004,0x70600C45
0.0563359400,1486,0x00000004,0x70600C45
0.0563702400,1487,0x00000004,0x70600C45
0.0563784400,1488,0x00000004,0x70600C45
0.0564473400,1489,0x09C00004,0x70602212
0.0564637200,1490,0x05400014,0x70602705
0.0564678000,1491,0x05400014,0x70602705
0.0564719000,1492,0x05400014,0x70602705
0.0564923800,1493,0x00000004,0x70600C45
0.0564964600,1494,0x00000004,0x70600C45
0.0565005600,1495,0x00000004,0x70600C45
0.0565046600,1496,0x00000004,0x70600C45
0.0567949000,1497,0x0800001C,0x70600005
0.0567989800,1498,0x00000004,0x70600C45
0.0568030800,1499,0x00000004,0x70600C45
0.0568071800,1500,0x00000004,0x70600C45
0.0568112600,1501,0x00000004,0x70600C45
0.0568153600,1502,0x00000004,0x70600C45
0.0568194600,1503,0x00000004,0x70600C45
0.0568235600,1504,0x00000004,0x70600C45
0.0568276400,1505,0x00000004,0x70600C45
0.0568317400,1506,0x00000004,0x70600C45
0.0568358400,1507,0x00000004,0x70600C45
0.0568701400,1508,0x00000004,0x70600C45
0.0568783400,1509,0x00000004,0x70600C45
0.0569473000,1510,0x09C00004,0x70602212
0.0569636600,1511,0x05400014,0x70602705
0.0569677600,1512,0x05400014,0x70602705
0.0569718600,1513,0x05400014,0x70602705
0.0569923200,1514,0x00000004,0x70600C45
0.0569964200,1515,0x00000004,0x70600C45
0.0570005000,1516,0x00000004,0x70600C45
0.0570046000,1517,0x00000004,0x70600C45
0.0572950000,1518,0x0800001C,0x70600005
0.0572991000,1519,0x00000004,0x70600C45
0.0573031800,1520,0x00000004,0x70600C45
0.0573072800,1521,0x00000004,0x70600C45
0.0573113800,1522,0x00000004,0x70600C45
0.0573154800,1523,0x00000004,0x70600C45
0.0573195600,1524,0x00000004,0x70600C45
0.0573236600,1525,0x00000004,0x70600C45
0.0573277600,1526,0x00000004,0x70600C45
0.0573318400,1527,0x00000004,0x70600C45
0.0573359400,1528,0x00000004,0x70600C45
0.0573702600,1529,0x00000004,0x70600C45
0.0573784400,1530,0x00000004,0x70600C45
0.0574473400,1531,0x09C00004,0x30602212
0.0574637200,1532,0x05400014,0x30602705
0.0574678200,1533,0x05400014,0x30602705
0.0574719000,1534,0x05400014,0x30602705
0.0574923800,1535,0x00000004,0x30600C45
0.0574964800,1536,0x00000004,0x30600C45
0.0575005600,1537,0x00000004,0x30600C45
0.0575046600,1538,0x00000004,0x30600C45
0.0577949000,1539,0x0800001C,0x30600005
0.0577990000,1540,0x00000004,0x30600C45
0.0578030800,1541,0x00000004,0x30600C45
0.0578071800,1542,0x00000004,0x30600C45
0.0578112800,1543,0x00000004,0x30600C45
0.0578153600,1544,0x00000004,0x30600C45
0.0578194600,1545,0x00000004,0x30600C45
0.0578235600,1546,0x00000004,0x30600C45
0.0578276600,1547,0x00000004,0x30600C45
0.0578317400,1548,0x00000004,0x30600C45
0.0578358400,1549,0x00000004,0x30600C45
0.0578701600,1550,0x00000004,0x30600C45
0.0578783400,1551,0x00000004,0x30600C45
0.0579473000,1552,0x09C00004,0x30602212
0.0579636800,1553,0x05400014,0x30602705
0.0579677600,1554,0x05400014,0x30602705
0.0579718600,1555,0x05400014,0x30602705
0.0579923200,1556,0x00000004,0x30600C45
0.0579964200,1557,0x00000004,0x30600C45
0.0580005200,1558,0x00000004,0x30600C45
0.0580046000,1559,0x00000004,0x30600C45
0.0582950000,1560,0x0800001C,0x30600005
0.0582991000,1561,0x00000004,0x30600C45
0.0583032000,1562,0x00000004,0x30600C45
0.0583072800,1563,0x00000004,0x30600C45
0.0583113800,1564,0x00000004,0x30600C45
0.0583154800,1565,0x00000004,0x30600C45
0.0583195800,1566,0x00000004,0x30600C45
0.0583236600,1567,0x00000004,0x30600C45
0.0583277600,1568,0x00000004,0x30600C45
0.0583318600,1569,0x00000004,0x30600C45
0.0583359400,1570,0x00000004,0x30600C45
0.0583702600,1571,0x00000004,0x30600C45
0.0583784400,1572,0x00000004,0x30600C45
0.0584473600,1573,0x09C00004,0x30602212
0.0584637200,1574,0x05400014,0x30602705
0.0584678200,1575,0x05400014,0x30602705
0.0584719200,1576,0x05400014,0x30602705
0.0584923800,1577,0x00000004,0x30600C45
0.0584964800,1578,0x00000004,0x30600C45
0.0585005800,1579,0x00000004,0x30600C45
0.0585046600,1580,0x00000004,0x30600C45
0.0587949000,1581,0x0800001C,0x30600005
0.0587990000,1582,0x00000004,0x30600C45
0.0588031000,1583,0x00000004,0x30600C45
0.0588071800,1584,0x00000004,0x30600C45
0.0588112800,1585,0x00000004,0x30600C45
0.0588153800,1586,0x00000004,0x30600C45
0.0588194600,1587,0x00000004,0x30600C45
0.0588235600,1588,0x00000004,0x30600C45
0.0588276600,1589,0x00000004,0x30600C45
0.0588317600,1590,0x00000004,0x30600C45
0.0588358400,1591,0x00000004,0x30600C45
0.0588701600,1592,0x00000004,0x30600C45
0.0588783400,1593,0x00000004,0x30600C45
0.0589473000,1594,0x09C00004,0x30602212
0.0589636800,1595,0x05400014,0x30602705
0.0589677800,1596,0x05400014,0x30602705
0.0589718600,1597,0x05400014,0x30602705
0.0589923400,1598,0x00000004,0x30600C45
0.0589964200,1599,0x00000004,0x30600C45
0.0590005200,1600,0x00000004,0x30600C45
0.0590046200,1601,0x00000004,0x30600C45
0.0592950200,1602,0x0800001C,0x30600005
0.0592991000,1603,0x00000004,0x30600C45
0.0593032000,1604,0x00000004,0x30600C45
0.0593073000,1605,0x00000004,0x30600C45
0.0593113800,1606,0x00000004,0x30600C45
0.0593154800,1607,0x00000004,0x30600C45
0.0593195800,1608,0x00000004,0x30600C45
0.0593236800,1609,0x00000004,0x30600C45
0.0593277600,1610,0x00000004,0x30600C45
0.0593318600,1611,0x00000004,0x30600C45
0.0593359600,1612,0x00000004,0x30600C45
0.0593702600,1613,0x00000004,0x30600C45
0.0593784600,1614,0x00000004,0x30600C45
0.0594473800,1615,0x09C00004,0x30602212
0.0594637600,1616,0x05400014,0x30602705
0.0594678400,1617,0x05400014,0x30602705
0.0594719400,1618,0x05400014,0x30602705
0.0594924000,1619,0x00000004,0x30600C45
0.0594965000,1620,0x00000004,0x30600C45
0.0595006000,1621,0x00000004,0x30600C45
0.0595047000,1622,0x00000004,0x30600C45
0.0597949200,1623,0x0800001C,0x30600005
0.0597990000,1624,0x00000004,0x30600C45
0.0598031000,1625,0x00000004,0x30600C45
0.0598072000,1626,0x00000004,0x30600C45
0.0598112800,1627,0x00000004,0x30600C45
0.0598153800,1628,0x00000004,0x30600C45
0.0598194800,1629,0x00000004,0x30600C45
0.0598235600,1630,0x00000004,0x30600C45
0.0598276600,1631,0x00000004,0x30600C45
0.0598317600,1632,0x00000004,0x30600C45
0.0598358600,1633,0x00000004,0x30600C45
0.0598701600,1634,0x00000004,0x30600C45
0.0598783600,1635,0x00000004,0x30600C45
0.0599473200,1636,0x09C00004,0x30602212
0.0599637000,1637,0x05400014,0x30602705
0.0599677800,1638,0x05400014,0x30602705
0.0599718800,1639,0x05400014,0x30602705
0.0599923600,1640,0x00000004,0x30600C45
0.0599964400,1641,0x00000004,0x30600C45
0.0600005400,1642,0x00000004,0x30600C45
0.0600046400,1643,0x00000004,0x30600C45
0.0602952800,1644,0x0800001C,0x30600005
0.0602993800,1645,0x00000004,0x30600C45
0.0603034600,1646,0x00000004,0x30600C45
0.0603075600,1647,0x00000004,0x30600C45
0.0603116600,1648,0x00000004,0x30600C45
0.0603157400,1649,0x00000004,0x30600C45
0.0603198400,1650,0x00000004,0x30600C45
0.0603239400,1651,0x00000004,0x30600C45
0.0603280400,1652,0x00000004,0x30600C45
0.0603321200,1653,0x00000004,0x30600C45
0.0603362200,1654,0x00000004,0x30600C45
0.0603705400,1655,0x00000004,0x30600C45
0.0603787200,1656,0x00000004,0x30600C45
0.0604475000,1657,0x09C00004,0x30602212
0.0604638800,1658,0x05400014,0x30602705
0.0604679600,1659,0x05400014,0x30602705
0.0604720600,1660,0x05400014,0x30602705
0.0604925400,1661,0x00000004,0x30600C45
0.0604966200,1662,0x00000004,0x30600C45
0.0605007200,1663,0x00000004,0x30600C45
0.0605048200,1664,0x00000004,0x30600C45
0.0607949200,1665,0x0800001C,0x30600005
0.0607990200,1666,0x00000004,0x30600C45
0.0608031000,1667,0x00000004,0x30600C45
0.0608072000,1668,0x00000004,0x30600C45
0.0608113000,1669,0x00000004,0x30600C45
0.0608153800,1670,0x00000004,0x30600C45
0.0608194800,1671,0x00000004,0x30600C45
0.0608235800,1672,0x00000004,0x30600C45
0.0608276600,1673,0x00000004,0x30600C45
0.0608317600,1674,0x00000004,0x30600C45
0.0608358600,1675,0x00000004,0x30600C45
0.0608701800,1676,0x00000004,0x30600C45
0.0608783600,1677,0x00000004,0x30600C45
0.0609473200,1678,0x09C00004,0x30602212
0.0609637000,1679,0x05400014,0x30602705
0.0609677800,1680,0x05400014,0x30602705
0.0609718800,1681,0x05400014,0x30602705
0.0609923400,1682,0x00000004,0x30600C45
0.0609964400,1683,0x00000004,0x30600C45
0.0610005400,1684,0x00000004,0x30600C45
0.0610046200,1685,0x00000004,0x30600C45
0.0612950200,1686,0x0800001C,0x30600005
0.0612991200,1687,0x00000004,0x30600C45
0.0613032200,1688,0x00000004,0x30600C45
0.0613073000,1689,0x00000004,0x30600C45
0.0613114000,1690,0x00000004,0x30600C45
0.0613155000,1691,0x00000004,0x30600C45
0.0613195800,1692,0x00000004,0x30600C45
0.0613236800,1693,0x00000004,0x30600C45
0.0613277800,1694,0x00000004,0x30600C45
0.0613318800,1695,0x00000004,0x30600C45
0.0613359600,1696,0x00000004,0x30600C45
0.0613702800,1697,0x00000004,0x30600C45
0.0613784600,1698,0x00000004,0x30600C45
0.0614473800,1699,0x09C00004,0x30602212
0.0614637400,1700,0x05400014,0x30602705
0.0614678400,1701,0x05400014,0x30602705
0.0614719400,1702,0x05400014,0x30602705
0.0614924000,1703,0x00000004,0x30600C45
0.0614965000,1704,0x00000004,0x30600C45
0.0615005800,1705,0x00000004,0x30600C45
0.0615046800,1706,0x00000004,0x30600C45
0.0617949200,1707,0x0800001C,0x30600005
0.0617990200,1708,0x00000004,0x30600C45
0.0618031200,1709,0x00000004,0x30600C45
0.0618072000,1710,0x00000004,0x30600C45
0.0618113000,1711,0x00000004,0x30600C45
0.0618154000,1712,0x00000004,0x30600C45
0.0618194800,1713,0x00000004,0x30600C45
0.0618235800,1714,0x00000004,0x30600C45
0.0618276800,1715,0x00000004,0x30600C45
0.0618317600,1716,0x00000004,0x30600C45
0.0618358600,1717,0x00000004,0x30600C45
0.0618701800,1718,0x00000004,0x30600C45
0.0618783600,1719,0x00000004,0x30600C45
0.0619473200,1720,0x09C00004,0x30602212
0.0619637000,1721,0x05400014,0x30602705
0.0619678000,1722,0x05400014,0x30602705
0.0619718800,1723,0x05400014,0x30602705
0.0619923600,1724,0x00000004,0x30600C45
0.0619964400,1725,0x00000004,0x30600C45
0.0620005400,1726,0x00000004,0x30600C45
0.0620046400,1727,0x00000004,0x30600C45
0.0622950400,1728,0x0800001C,0x30600005
0.0622991200,1729,0x00000004,0x30600C45
0.0623032200,1730,0x00000004,0x30600C45
0.0623073200,1731,0x00000004,0x30600C45
0.0623114000,1732,0x00000004,0x30600C45
0.0623155000,1733,0x00000004,0x30600C45
0.0623196000,1734,0x00000004,0x30600C45
0.0623236800,1735,0x00000004,0x30600C45
0.0623277800,1736,0x00000004,0x30600C45
0.0623318800,1737,0x00000004,0x30600C45
0.0623359800,1738,0x00000004,0x30600C45
0.0623702800,1739,0x00000004,0x30600C45
0.0623784800,1740,0x00000004,0x30600C45
0.0624473800,1741,0x09C00004,0x30602212
0.0624637600,1742,0x05400014,0x30602705
0.0624678400,1743,0x05400014,0x30602705
0.0624719400,1744,0x05400014,0x30602705
0.0624924000,1745,0x00000004,0x30600C45
0.0624965000,1746,0x00000004,0x30600C45
0.0625006000,1747,0x00000004,0x30600C45
0.0625046800,1748,0x00000004,0x30600C45
0.0627949400,1749,0x0800001C,0x30600005
0.0627990200,1750,0x00000004,0x30600C45
0.0628031200,1751,0x00000004,0x30600C45
0.0628072200,1752,0x00000004,0x30600C45
0.0628113000,1753,0x00000004,0x30600C45
0.0628154000,1754,0x00000004,0x30600C45
0.0628195000,1755,0x00000004,0x30600C45
0.0628235800,1756,0x00000004,0x30600C45
0.0628276800,1757,0x00000004,0x30600C45
0.0628317800,1758,0x00000004,0x30600C45
0.0628358600,1759,0x00000004,0x30600C45
0.0628701800,1760,0x00000004,0x30600C45
0.0628783600,1761,0x00000004,0x30600C45
0.0629473200,1762,0x09C00004,0x30602212
0.0629637000,1763,0x05400014,0x30602705
0.0629678000,1764,0x05400014,0x30602705
0.0629719000,1765,0x05400014,0x30602705
0.0629923600,1766,0x00000004,0x30600C45
0.0629964600,1767,0x00000004,0x30600C45
0.0630005400,1768,0x00000004,0x30600C45
0.0630046400,1769,0x00000004,0x30600C45
0.0632950400,1770,0x0800001C,0x30600005
0.0632991400,1771,0x00000004,0x30600C45
0.0633032200,1772,0x00000004,0x30600C45
0.0633073200,1773,0x00000004,0x30600C45
0.0633114200,1774,0x00000004,0x30600C45
0.0633155000,1775,0x00000004,0x30600C45
0.0633196000,1776,0x00000004,0x30600C45
0.0633237000,1777,0x00000004,0x30600C45
0.0633277800,1778,0x00000004,0x30600C45
0.0633318800,1779,0x00000004,0x30600C45
0.0633359800,1780,0x00000004,0x30600C45
0.0633702800,1781,0x00000004,0x30600C45
0.0633784800,1782,0x00000004,0x30600C45
0.0634473800,1783,0x09C00004,0x30602212
0.0634637600,1784,0x05400014,0x30602705
0.0634678600,1785,0x05400014,0x30602705
0.0634719400,1786,0x05400014,0x30602705
0.0634924200,1787,0x00000004,0x30600C45
0.0634965000,1788,0x00000004,0x30600C45
0.0635006000,1789,0x00000004,0x30600C45
0.0635047000,1790,0x00000004,0x30600C45
0.0637949400,1791,0x0800001C,0x30600005
0.0637990400,1792,0x00000004,0x30600C45
0.0638031200,1793,0x00000004,0x30600C45
0.0638072200,1794,0x00000004,0x30600C45
0.0638113200,1795,0x00000004,0x30600C45
0.0638154000,1796,0x00000004,0x30600C45
0.0638195000,1797,0x00000004,0x30600C45
0.0638236000,1798,0x00000004,0x30600C45
0.0638276800,1799,0x00000004,0x30600C45
0.0638317800,1800,0x00000004,0x30600C45
0.0638358800,1801,0x00000004,0x30600C45
0.0638701800,1802,0x00000004,0x30600C45
0.0638783800,1803,0x00000004,0x30600C45
0.0639473400,1804,0x09C00004,0x30602212
0.0639637200,1805,0x05400014,0x30602705
0.0639678200,1806,0x05400014,0x30602705
0.0639719000,1807,0x05400014,0x30602705
0.0639923800,1808,0x00000004,0x30600C45
0.0639964800,1809,0x00000004,0x30600C45
0.0640005600,1810,0x00000004,0x30600C45
0.0640046600,1811,0x00000004,0x30600C45
0.0642950400,1812,0x0800001C,0x30600005
0.0642991400,1813,0x00000004,0x30600C45
0.0643032400,1814,0x00000004,0x30600C45
0.0643073200,1815,0x00000004,0x30600C45
0.0643114200,1816,0x00000004,0x30600C45
0.0643155200,1817,0x00000004,0x30600C45
0.0643196000,1818,0x00000004,0x30600C45
0.0643237000,1819,0x00000004,0x30600C45
0.0643278000,1820,0x00000004,0x30600C45
0.0643318800,1821,0x00000004,0x30600C45
0.0643359800,1822,0x00000004,0x30600C45
0.0643703000,1823,0x00000004,0x30600C45
0.0643784800,1824,0x00000004,0x30600C45
0.0644474000,1825,0x09C00004,0x30602212
0.0644637800,1826,0x05400014,0x30602705
0.0644678800,1827,0x05400014,0x30602705
0.0644719800,1828,0x05400014,0x30602705
0.0644924400,1829,0x00000004,0x30600C45
0.0644965400,1830,0x00000004,0x30600C45
0.0645006400,1831,0x00000004,0x30600C45
0.0645047200,1832,0x00000004,0x30600C45
0.0647949400,1833,0x0800001C,0x30600005
0.0647990400,1834,0x00000004,0x30600C45
0.0648031400,1835,0x00000004,0x30600C45
0.0648072200,1836,0x00000004,0x30600C45
0.0648113200,1837,0x00000004,0x30600C45
0.0648154200,1838,0x00000004,0x30600C45
0.0648195000,1839,0x00000004,0x30600C45
0.0648236000,1840,0x00000004,0x30600C45
0.0648277000,1841,0x00000004,0x30600C45
0.0648317800,1842,0x00000004,0x30600C45
0.0648358800,1843,0x00000004,0x30600C45
0.0648702000,1844,0x00000004,0x30600C45
0.0648783800,1845,0x00000004,0x30600C45
0.0649473400,1846,0x09C00004,0x30602212
0.0649637200,1847,0x05400014,0x30602705
0.0649678000,1848,0x05400014,0x30602705
0.0649719000,1849,0x05400014,0x30602705
0.0649923800,1850,0x00000004,0x30600C45
0.0649964600,1851,0x00000004,0x30600C45
0.0650005600,1852,0x00000004,0x30600C45
0.0650046600,1853,0x00000004,0x30600C45
0.0652953000,1854,0x0800001C,0x30600005
0.0652994000,1855,0x00000004,0x30600C45
0.0653034800,1856,0x00000004,0x30600C45
0.0653075800,1857,0x00000004,0x30600C45
0.0653116800,1858,0x00000004,0x30600C45
0.0653157800,1859,0x00000004,0x30600C45
0.0653198600,1860,0x00000004,0x30600C45
0.0653239600,1861,0x00000004,0x30600C45
0.0653280600,1862,0x00000004,0x30600C45
0.0653321400,1863,0x00000004,0x30600C45
0.0653362400,1864,0x00000004,0x30600C45
0.0653705600,1865,0x00000004,0x30600C45
0.0653787400,1866,0x00000004,0x30600C45
0.0654474000,1867,0x09C00004,0x30602212
0.0654637800,1868,0x05400014,0x30602705
0.0654678600,1869,0x05400014,0x30602705
0.0654719600,1870,0x05400014,0x30602705
0.0654924200,1871,0x00000004,0x30600C45
0.0654965200,1872,0x00000004,0x30600C45
0.0655006200,1873,0x00000004,0x30600C45
0.0655047000,1874,0x00000004,0x30600C45
0.0657949600,1875,0x0800001C,0x30600005
0.0657990400,1876,0x00000004,0x30600C45
0.0658031400,1877,0x00000004,0x30600C45
0.0658072400,1878,0x00000004,0x30600C45
0.0658113200,1879,0x00000004,0x30600C45
0.0658154200,1880,0x00000004,0x30600C45
0.0658195200,1881,0x00000004,0x30600C45
0.0658236000,1882,0x00000004,0x30600C45
0.0658277000,1883,0x00000004,0x30600C45
0.0658318000,1884,0x00000004,0x30600C45
0.0658358800,1885,0x00000004,0x30600C45
0.0658702000,1886,0x00000004,0x30600C45
0.0658783800,1887,0x00000004,0x30600C45
0.0659474000,1888,0x09C00004,0x30602212
0.0659637800,1889,0x05400014,0x30602705
0.0659678600,1890,0x05400014,0x30602705
0.0659719600,1891,0x05400014,0x30602705
0.0659924400,1892,0x00000004,0x30600C45
0.0659965200,1893,0x00000004,0x30600C45
0.0660006200,1894,0x00000004,0x30600C45
0.0660047200,1895,0x00000004,0x30600C45
0.0662950600,1896,0x0800001C,0x30600005
0.0662991600,1897,0x00000004,0x30600C45
0.0663032400,1898,0x00000004,0x30600C45
0.0663073400,1899,0x00000004,0x30600C45
0.0663114400,1900,0x00000004,0x30600C45
0.0663155200,1901,0x00000004,0x30600C45
0.0663196200,1902,0x00000004,0x30600C45
0.0663237200,1903,0x00000004,0x30600C45
0.0663278000,1904,0x00000004,0x30600C45
0.0663319000,1905,0x00000004,0x30600C45
0.0663360000,1906,0x00000004,0x30600C45
0.0663703000,1907,0x00000004,0x30600C45
0.0663785000,1908,0x00000004,0x30600C45
0.0664474000,1909,0x09C00004,0x30602212
0.0664637800,1910,0x05400014,0x30602705
0.0664678800,1911,0x05400014,0x30602705
0.0664719600,1912,0x05400014,0x30602705
0.0664924400,1913,0x00000004,0x30600C45
0.0664965200,1914,0x00000004,0x30600C45
0.0665006200,1915,0x00000004,0x30600C45
0.0665047200,1916,0x00000004,0x30600C45
0.0667949600,1917,0x0800001C,0x30600005
0.0667990600,1918,0x00000004,0x30600C45
0.0668031400,1919,0x00000004,0x30600C45
0.0668072400,1920,0x00000004,0x30600C45
0.0668113400,1921,0x00000004,0x30600C45
0.0668154200,1922,0x00000004,0x30600C45
0.0668195200,1923,0x00000004,0x30600C45
0.0668236200,1924,0x00000004,0x30600C45
0.0668277000,1925,0x00000004,0x30600C45
0.0668318000,1926,0x00000004,0x30600C45
0.0668359000,1927,0x00000004,0x30600C45
0.0668702000,1928,0x00000004,0x30600C45
0.0668784000,1929,0x00000004,0x30600C45
0.0669473600,1930,0x09C00004,0x30602212
0.0669637200,1931,0x05400014,0x30602705
0.0669678200,1932,0x05400014,0x30602705
0.0669719200,1933,0x05400014,0x30602705
0.0669923800,1934,0x00000004,0x30600C45
0.0669964800,1935,0x00000004,0x30600C45
0.0670005800,1936,0x00000004,0x30600C45
0.0670046600,1937,0x00000004,0x30600C45
0.0672950600,1938,0x0800001C,0x30600005
0.0672991600,1939,0x00000004,0x30600C45
0.0673032600,1940,0x00000004,0x30600C45
0.0673073400,1941,0x00000004,0x30600C45
0.0673114400,1942,0x00000004,0x30600C45
0.0673155400,1943,0x00000004,0x30600C45
0.0673196200,1944,0x00000004,0x30600C45
0.0673237200,1945,0x00000004,0x30600C45
0.0673278200,1946,0x00000004,0x30600C45
0.0673319000,1947,0x00000004,0x30600C45
0.0673360000,1948,0x00000004,0x30600C45
0.0673703200,1949,0x00000004,0x30600C45
0.0673785000,1950,0x00000004,0x30600C45
0.0674474000,1951,0x09C00004,0x30602212
0.0674637800,1952,0x05400014,0x30602705
0.0674678800,1953,0x05400014,0x30602705
0.0674719800,1954,0x05400014,0x30602705
0.0674924400,1955,0x00000004,0x30600C45
0.0674965400,1956,0x00000004,0x30600C45
0.0675006200,1957,0x00000004,0x30600C45
0.0675047200,1958,0x00000004,0x30600C45
0.0677949600,1959,0x0800001C,0x30600005
0.0677990600,1960,0x00000004,0x30600C45
0.0678031400,1961,0x00000004,0x30600C45
0.0678072400,1962,0x00000004,0x30600C45
0.0678113400,1963,0x00000004,0x30600C45
0.0678154400,1964,0x00000004,0x30600C45
0.0678195200,1965,0x00000004,0x30600C45
0.0678236200,1966,0x00000004,0x30600C45
0.0678277200,1967,0x00000004,0x30600C45
0.0678318000,1968,0x00000004,0x30600C45
0.0678359000,1969,0x00000004,0x30600C45
0.0678702200,1970,0x00000004,0x30600C45
0.0678784000,1971,0x00000004,0x30600C45
0.0679473800,1972,0x09C00004,0x30602212
0.0679637400,1973,0x05400014,0x30602705
0.0679678400,1974,0x05400014,0x30602705
0.0679719400,1975,0x05400014,0x30602705
0.0679924000,1976,0x00000004,0x30600C45
0.0679965000,1977,0x00000004,0x30600C45
0.0680005800,1978,0x00000004,0x30600C45
0.0680046800,1979,0x00000004,0x30600C45
0.0682950600,1980,0x0800001C,0x30600005
0.0682991600,1981,0x00000004,0x30600C45
0.0683032600,1982,0x00000004,0x30600C45
0.0683073600,1983,0x00000004,0x30600C45
0.0683114400,1984,0x00000004,0x30600C45
0.0683155400,1985,0x00000004,0x30600C45
0.0683196400,1986,0x00000004,0x30600C45
0.0683237200,1987,0x00000004,0x30600C45
0.0683278200,1988,0x00000004,0x30600C45
0.0683319200,1989,0x00000004,0x30600C45
0.0683360000,1990,0x00000004,0x30600C45
0.0683703200,1991,0x00000004,0x30600C45
0.0683785000,1992,0x00000004,0x30600C45
0.0684474200,1993,0x09C00004,0x30602212
0.0684637800,1994,0x05400014,0x30602705
0.0684678800,1995,0x05400014,0x30602705
0.0684719800,1996,0x05400014,0x30602705
0.0684924400,1997,0x00000004,0x30600C45
0.0684965400,1998,0x00000004,0x30600C45
0.0685006400,1999,0x00000004,0x30600C45
0.0685047200,2000,0x00000004,0x30600C45
0.0687949600,2001,0x0800001C,0x30600005
0.0687990600,2002,0x00000004,0x30600C45
0.0688031600,2003,0x00000004,0x30600C45
0.0688072400,2004,0x00000004,0x30600C45
0.0688113400,2005,0x00000004,0x30600C45
0.0688154400,2006,0x00000004,0x30600C45
0.0688195400,2007,0x00000004,0x30600C45
0.0688236200,2008,0x00000004,0x30600C45
0.0688277200,2009,0x00000004,0x30600C45
0.0688318200,2010,0x00000004,0x30600C45
0.0688359000,2011,0x00000004,0x30600C45
0.0688702200,2012,0x00000004,0x30600C45
0.0688784000,2013,0x00000004,0x30600C45
0.0689473600,2014,0x09C00004,0x30602212
0.0689637400,2015,0x05400014,0x30602705
0.0689678400,2016,0x05400014,0x30602705
0.0689719200,2017,0x05400014,0x30602705
0.0689924000,2018,0x00000004,0x30600C45
0.0689964800,2019,0x00000004,0x30600C45
0.0690005800,2020,0x00000004,0x30600C45
0.0690046800,2021,0x00000004,0x30600C45
0.0692950800,2022,0x0800001C,0x30600005
0.0692991600,2023,0x00000004,0x30600C45
0.0693032600,2024,0x00000004,0x30600C45
0.0693073600,2025,0x00000004,0x30600C45
0.0693114600,2026,0x00000004,0x30600C45
0.0693155400,2027,0x00000004,0x30600C45
0.0693196400,2028,0x00000004,0x30600C45
0.0693237400,2029,0x00000004,0x30600C45
0.0693278200,2030,0x00000004,0x30600C45
0.0693319200,2031,0x00000004,0x30600C45
0.0693360200,2032,0x00000004,0x30600C45
0.0693703200,2033,0x00000004,0x30600C45
0.0693785200,2034,0x00000004,0x30600C45
0.0694474200,2035,0x09C00004,0x30602212
0.0694638000,2036,0x05400014,0x30602705
0.0694678800,2037,0x05400014,0x30602705
0.0694719800,2038,0x05400014,0x30602705
0.0694924600,2039,0x00000004,0x30600C45
0.0694965400,2040,0x00000004,0x30600C45
0.0695006400,2041,0x00000004,0x30600C45
0.0695047400,2042,0x00000004,0x30600C45
0.0697949800,2043,0x0800001C,0x30600005
0.0697990600,2044,0x00000004,0x30600C45
0.0698031600,2045,0x00000004,0x30600C45
0.0698072600,2046,0x00000004,0x30600C45
0.0698113400,2047,0x00000004,0x30600C45
0.0698154400,2048,0x00000004,0x30600C45
0.0698195400,2049,0x00000004,0x30600C45
0.0698236400,2050,0x00000004,0x30600C45
0.0698277200,2051,0x00000004,0x30600C45
0.0698318200,2052,0x00000004,0x30600C45
0.0698359200,2053,0x00000004,0x30600C45
0.0698702200,2054,0x00000004,0x30600C45
0.0698784200,2055,0x00000004,0x30600C45
0.0699473800,2056,0x09C00004,0x30602212
0.0699637400,2057,0x05400014,0x30602705
0.0699678400,2058,0x05400014,0x30602705
0.0699719400,2059,0x05400014,0x30602705
0.0699924000,2060,0x00000004,0x30600C45
0.0699965000,2061,0x00000004,0x30600C45
0.0700006000,2062,0x00000004,0x30600C45
0.0700046800,2063,0x00000004,0x30600C45
0.0702953400,2064,0x0800001C,0x30600005
0.0702994400,2065,0x00000004,0x30600C45
0.0703035200,2066,0x00000004,0x30600C45
0.0703076200,2067,0x00000004,0x30600C45
0.0703117200,2068,0x00000004,0x30600C45
0.0703158000,2069,0x00000004,0x30600C45
0.0703199000,2070,0x00000004,0x30600C45
0.0703240000,2071,0x00000004,0x30600C45
0.0703281000,2072,0x00000004,0x30600C45
0.0703321800,2073,0x00000004,0x30600C45
0.0703362800,2074,0x00000004,0x30600C45
0.0703706000,2075,0x00000004,0x30600C45
0.0703787800,2076,0x00000004,0x30600C45
0.0704475600,2077,0x09C00004,0x30602212
0.0704639400,2078,0x05400014,0x30602705
0.0704680400,2079,0x05400014,0x30602705
0.0704721200,2080,0x05400014,0x30602705
0.0704926000,2081,0x00000004,0x30600C45
0.0704966800,2082,0x00000004,0x30600C45
0.0705007800,2083,0x00000004,0x30600C45
0.0705048800,2084,0x00000004,0x30600C45
0.0707949800,2085,0x0800001C,0x30600005
0.0707990800,2086,0x00000004,0x30600C45
0.0708031600,2087,0x00000004,0x30600C45
0.0708072600,2088,0x00000004,0x30600C45
0.0708113600,2089,0x00000004,0x30600C45
0.0708154400,2090,0x00000004,0x30600C45
0.0708195400,2091,0x00000004,0x30600C45
0.0708236400,2092,0x00000004,0x30600C45
0.0708277400,2093,0x00000004,0x30600C45
0.0708318200,2094,0x00000004,0x30600C45
0.0708359200,2095,0x00000004,0x30600C45
0.0708702400,2096,0x00000004,0x30600C45
0.0708784200,2097,0x00000004,0x30600C45
0.0709473800,2098,0x09C00004,0x30602212
0.0709637600,2099,0x05400014,0x30602705
0.0709678400,2100,0x05400014,0x30602705
0.0709719400,2101,0x05400014,0x30602705
0.0709924000,2102,0x00000004,0x30600C45
0.0709965000,2103,0x00000004,0x30600C45
0.0710006000,2104,0x00000004,0x30600C45
0.0710047000,2105,0x00000004,0x30600C45
0.0712950800,2106,0x0800001C,0x30600005
0.0712991800,2107,0x00000004,0x30600C45
0.0713032800,2108,0x00000004,0x30600C45
0.0713073600,2109,0x00000004,0x30600C45
0.0713114600,2110,0x00000004,0x30600C45
0.0713155600,2111,0x00000004,0x30600C45
0.0713196600,2112,0x00000004,0x30600C45
0.0713237400,2113,0x00000004,0x30600C45
0.0713278400,2114,0x00000004,0x30600C45
0.0713319400,2115,0x00000004,0x30600C45
0.0713360200,2116,0x00000004,0x30600C45
0.0713703400,2117,0x00000004,0x30600C45
0.0713785200,2118,0x00000004,0x30600C45
0.0714474600,2119,0x09C00004,0x30602212
0.0714638400,2120,0x05400014,0x30602705
0.0714679400,2121,0x05400014,0x30602705
0.0714720200,2122,0x05400014,0x30602705
0.0714925000,2123,0x00000004,0x30600C45
0.0714965800,2124,0x00000004,0x30600C45
0.0715006800,2125,0x00000004,0x30600C45
0.0715047800,2126,0x00000004,0x30600C45
0.0717949800,2127,0x0800001C,0x30600005
0.0717990800,2128,0x00000004,0x30600C45
0.0718031800,2129,0x00000004,0x30600C45
0.0718072600,2130,0x00000004,0x30600C45
0.0718113600,2131,0x00000004,0x30600C45
0.0718154600,2132,0x00000004,0x30600C45
0.0718195400,2133,0x00000004,0x30600C45
0.0718236400,2134,0x00000004,0x30600C45
0.0718277400,2135,0x00000004,0x30600C45
0.0718318400,2136,0x00000004,0x30600C45
0.0718359200,2137,0x00000004,0x30600C45
0.0718702400,2138,0x00000004,0x30600C45
0.0718784200,2139,0x00000004,0x30600C45
0.0719474600,2140,0x09C00004,0x30602212
0.0719638400,2141,0x05400014,0x30602705
0.0719679200,2142,0x05400014,0x30602705
0.0719720200,2143,0x05400014,0x30602705
0.0719924800,2144,0x00000004,0x30600C45
0.0719965800,2145,0x00000004,0x30600C45
0.0720006800,2146,0x00000004,0x30600C45
0.0720047600,2147,0x00000004,0x30600C45
0.0722952400,2148,0x0800001C,0x30600005
0.0722993200,2149,0x00000004,0x30600C45
0.0723034200,2150,0x00000004,0x30600C45
0.0723075000,2151,0x00000004,0x30600C45
0.0723116000,2152,0x00000004,0x30600C45
0.0723157000,2153,0x00000004,0x30600C45
0.0723198000,2154,0x00000004,0x30600C45
0.0723238800,2155,0x00000004,0x30600C45
0.0723279800,2156,0x00000004,0x30600C45
0.0723320800,2157,0x00000004,0x30600C45
0.0723361600,2158,0x00000004,0x30600C45
0.0723704800,2159,0x00000004,0x30600C45
0.0723786600,2160,0x00000004,0x30600C45
0.0724474000,2161,0x09C00004,0x30602212
0.0724637800,2162,0x05400014,0x30602705
0.0724678600,2163,0x05400014,0x30602705
0.0724719600,2164,0x05400014,0x30602705
0.0724924200,2165,0x00000004,0x30600C45
0.0724965200,2166,0x00000004,0x30600C45
0.0725006200,2167,0x00000004,0x30600C45
0.0725047000,2168,0x00000004,0x30600C45
0.0727950200,2169,0x0800001C,0x30600005
0.0727991200,2170,0x00000004,0x30600C45
0.0728032200,2171,0x00000004,0x30600C45
0.0728073000,2172,0x00000004,0x30600C45
0.0728114000,2173,0x00000004,0x30600C45
0.0728155000,2174,0x00000004,0x30600C45
0.0728195800,2175,0x00000004,0x30600C45
0.0728236800,2176,0x00000004,0x30600C45
0.0728277800,2177,0x00000004,0x30600C45
0.0728318600,2178,0x00000004,0x30600C45
0.0728359600,2179,0x00000004,0x30600C45
0.0728702800,2180,0x00000004,0x30600C45
0.0728784600,2181,0x00000004,0x30600C45
0.0729473800,2182,0x09C00004,0x30602212
0.0729637600,2183,0x05400014,0x30602705
0.0729678600,2184,0x05400014,0x30602705
0.0729719600,2185,0x05400014,0x30602705
0.0729924200,2186,0x00000004,0x30600C45
0.0729965200,2187,0x00000004,0x30600C45
0.0730006000,2188,0x00000004,0x30600C45
0.0730047000,2189,0x00000004,0x30600C45
0.0732951000,2190,0x0800001C,0x30600005
0.0732992000,2191,0x00000004,0x30600C45
0.0733032800,2192,0x00000004,0x30600C45
0.0733073800,2193,0x00000004,0x30600C45
0.0733114800,2194,0x00000004,0x30600C45
0.0733155600,2195,0x00000004,0x30600C45
0.0733196600,2196,0x00000004,0x30600C45
0.0733237600,2197,0x00000004,0x30600C45
0.0733278600,2198,0x00000004,0x30600C45
0.0733319400,2199,0x00000004,0x30600C45
0.0733360400,2200,0x00000004,0x30600C45
0.0733703600,2201,0x00000004,0x30600C45
0.0733785400,2202,0x00000004,0x30600C45
0.0734474400,2203,0x09C00004,0x30602212
0.0734638200,2204,0x05400014,0x30602705
0.0734679200,2205,0x05400014,0x30602705
0.0734720000,2206,0x05400014,0x30602705
0.0734924800,2207,0x00000004,0x30600C45
0.0734965800,2208,0x00000004,0x30600C45
0.0735006600,2209,0x00000004,0x30600C45
0.0735047600,2210,0x00000004,0x30600C45
0.0737950000,2211,0x0800001C,0x30600005
0.0737991000,2212,0x00000004,0x30600C45
0.0738031800,2213,0x00000004,0x30600C45
0.0738072800,2214,0x00000004,0x30600C45
0.0738113800,2215,0x00000004,0x30600C45
0.0738154600,2216,0x00000004,0x30600C45
0.0738195600,2217,0x00000004,0x30600C45
0.0738236600,2218,0x00000004,0x30600C45
0.0738277400,2219,0x00000004,0x30600C45
0.0738318400,2220,0x00000004,0x30600C45
0.0738359400,2221,0x00000004,0x30600C45
0.0738702600,2222,0x00000004,0x30600C45
0.0738784400,2223,0x00000004,0x30600C45
0.0739474000,2224,0x09C00004,0x30602212
0.0739637800,2225,0x05400014,0x30602705
0.0739678600,2226,0x05400014,0x30602705
0.0739719600,2227,0x05400014,0x30602705
0.0739924200,2228,0x00000004,0x30600C45
0.0739965200,2229,0x00000004,0x30600C45
0.0740006200,2230,0x00000004,0x30600C45
0.0740047000,2231,0x00000004,0x30600C45
0.0742951000,2232,0x0800001C,0x30600005
0.0742992000,2233,0x00000004,0x30600C45
0.0743033000,2234,0x00000004,0x30600C45
0.0743073800,2235,0x00000004,0x30600C45
0.0743114800,2236,0x00000004,0x30600C45
0.0743155800,2237,0x00000004,0x30600C45
0.0743196600,2238,0x00000004,0x30600C45
0.0743237600,2239,0x00000004,0x30600C45
0.0743278600,2240,0x00000004,0x30600C45
0.0743319600,2241,0x00000004,0x30600C45
0.0743360400,2242,0x00000004,0x30600C45
0.0743703600,2243,0x00000004,0x30600C45
0.0743785400,2244,0x00000004,0x30600C45
0.0744474600,2245,0x09C00004,0x30602212
0.0744638200,2246,0x05400014,0x30602705
0.0744679200,2247,0x05400014,0x30602705
0.0744720200,2248,0x05400014,0x30602705
0.0744924800,2249,0x00000004,0x30600C45
0.0744965800,2250,0x00000004,0x30600C45
0.0745006800,2251,0x00000004,0x30600C45
0.0745047600,2252,0x00000004,0x30600C45
0.0747950000,2253,0x0800001C,0x30600005
0.0747991000,2254,0x00000004,0x30600C45
0.0748032000,2255,0x00000004,0x30600C45
0.0748072800,2256,0x00000004,0x30600C45
0.0748113800,2257,0x00000004,0x30600C45
0.0748154800,2258,0x00000004,0x30600C45
0.0748195600,2259,0x00000004,0x30600C45
0.0748236600,2260,0x00000004,0x30600C45
0.0748277600,2261,0x00000004,0x30600C45
0.0748318400,2262,0x00000004,0x30600C45
0.0748359400,2263,0x00000004,0x30600C45
0.0748702600,2264,0x00000004,0x30600C45
0.0748784400,2265,0x00000004,0x30600C45
0.0749474000,2266,0x09C00004,0x30602212
0.0749637800,2267,0x05400014,0x30602705
0.0749678800,2268,0x05400014,0x30602705
0.0749719600,2269,0x05400014,0x30602705
0.0749924400,2270,0x00000004,0x30600C45
0.0749965200,2271,0x00000004,0x30600C45
0.0750006200,2272,0x00000004,0x30600C45
0.0750047200,2273,0x00000004,0x30600C45
0.0752953800,2274,0x0800001C,0x30200007
0.0752994600,2275,0x00000004,0x30200C47
0.0753035600,2276,0x00000004,0x30200C47
0.0753076600,2277,0x00000004,0x30200C47
0.0753117400,2278,0x00000004,0x30200C47
0.0753158400,2279,0x00000004,0x30200C47
0.0753199400,2280,0x00000004,0x30200C47
0.0753240200,2281,0x00000004,0x30200C47
0.0753281200,2282,0x00000004,0x30200C47
0.0753322200,2283,0x00000004,0x30200C47
0.0753363000,2284,0x00000004,0x30200C47
0.0753706200,2285,0x48000018,0x30200007
0.0753788200,2286,0x00000004,0x30200C47
0.0754474600,2287,0x09C00004,0x30202210
0.0754638400,2288,0x05400014,0x30202707
0.0754679200,2289,0x05400014,0x30202707
0.0754720200,2290,0x05400014,0x30202707
0.0754924800,2291,0x00000004,0x30200C47
0.0754965800,2292,0x00000004,0x30200C47
0.0755006800,2293,0x00000004,0x30200C47
0.0755047800,2294,0x00000004,0x30200C47
0.0757950200,2295,0x0800001C,0x30200007
0.0757991000,2296,0x00000004,0x30200C47
0.0758032000,2297,0x00000004,0x30200C47
0.0758073000,2298,0x00000004,0x30200C47
0.0758113800,2299,0x00000004,0x30200C47
0.0758154800,2300,0x00000004,0x30200C47
0.0758195800,2301,0x00000004,0x30200C47
0.0758236600,2302,0x00000004,0x30200C47
0.0758277600,2303,0x00000004,0x30200C47
0.0758318600,2304,0x00000004,0x30200C47
0.0758359400,2305,0x00000004,0x30200C47
0.0758702600,2306,0x4840000C,0x30200007
0.0758784600,2307,0x00000004,0x30200C47
0.0759474200,2308,0x09C00004,0x30202210
0.0759638000,2309,0x05400014,0x30202707
0.0759678800,2310,0x05400014,0x30202707
0.0759719800,2311,0x05400014,0x30202707
0.0759924600,2312,0x00000004,0x30200C47
0.0759965400,2313,0x00000004,0x30200C47
0.0760006400,2314,0x00000004,0x30200C47
0.0760047400,2315,0x00000004,0x30200C47
0.0762951200,2316,0x0800001C,0x30200007
0.0762992200,2317,0x00000004,0x30200C47
0.0763033000,2318,0x00000004,0x30200C47
0.0763074000,2319,0x00000004,0x30200C47
0.0763115000,2320,0x00000004,0x30200C47
0.0763155800,2321,0x00000004,0x30200C47
0.0763196800,2322,0x00000004,0x30200C47
0.0763237800,2323,0x00000004,0x30200C47
0.0763278600,2324,0x00000004,0x30200C47
0.0763319600,2325,0x00000004,0x30200C47
0.0763360600,2326,0x00000004,0x30200C47
0.0763703600,2327,0x4880001C,0x30200007
0.0763785600,2328,0x00000004,0x30200C47
0.0764474600,2329,0x09C00004,0x30202210
0.0764638400,2330,0x05400014,0x30202707
0.0764679400,2331,0x05400014,0x30202707
0.0764720200,2332,0x05400014,0x30202707
0.0764925000,2333,0x00000004,0x30200C47
0.0764965800,2334,0x00000004,0x30200C47
0.0765006800,2335,0x00000004,0x30200C47
0.0765047800,2336,0x00000004,0x30200C47
0.0767950200,2337,0x0800001C,0x30200007
0.0767991200,2338,0x00000004,0x30200C47
0.0768032000,2339,0x00000004,0x30200C47
0.0768073000,2340,0x00000004,0x30200C47
0.0768114000,2341,0x00000004,0x30200C47
0.0768154800,2342,0x00000004,0x30200C47
0.0768195800,2343,0x00000004,0x30200C47
0.0768236800,2344,0x00000004,0x30200C47
0.0768277600,2345,0x00000004,0x30200C47
0.0768318600,2346,0x00000004,0x30200C47
0.0768359600,2347,0x00000004,0x30200C47
0.0768702600,2348,0x03000044,0x30200007
0.0768784600,2349,0x00000004,0x30600C45
0.0769474200,2350,0x09C00004,0x30602212
0.0769637800,2351,0x05400014,0x30602705
0.0769678800,2352,0x05400014,0x30602705
0.0769719800,2353,0x05400014,0x30602705
0.0769924400,2354,0x00000004,0x30600C45
0.0769965400,2355,0x00000004,0x30600C45
0.0770006400,2356,0x00000004,0x30600C45
0.0770047200,2357,0x00000004,0x30600C45
0.0772951200,2358,0x0800001C,0x30600005
0.0772992200,2359,0x00000004,0x30600C45
0.0773033200,2360,0x00000004,0x30600C45
0.0773074000,2361,0x00000004,0x30600C45
0.0773115000,2362,0x00000004,0x30600C45
0.0773156000,2363,0x00000004,0x30600C45
0.0773196800,2364,0x00000004,0x30600C45
0.0773237800,2365,0x00000004,0x30600C45
0.0773278800,2366,0x00000004,0x30600C45
0.0773319600,2367,0x00000004,0x30600C45
0.0773360600,2368,0x00000004,0x30600C45
0.0773703800,2369,0x00000004,0x30600C45
0.0773785600,2370,0x00000004,0x30600C45
0.0774475400,2371,0x09C00004,0x30602212
0.0774639000,2372,0x05400014,0x30602705
0.0774680000,2373,0x05400014,0x30602705
0.0774721000,2374,0x05400014,0x30602705
0.0774925600,2375,0x00000004,0x30600C45
0.0774966600,2376,0x00000004,0x30600C45
0.0775007600,2377,0x00000004,0x30600C45
0.0775048400,2378,0x00000004,0x30600C45
0.0777950200,2379,0x0800001C,0x30600005
0.0777991200,2380,0x00000004,0x30600C45
0.0778032200,2381,0x00000004,0x30600C45
0.0778073000,2382,0x00000004,0x30600C45
0.0778114000,2383,0x00000004,0x30600C45
0.0778155000,2384,0x00000004,0x30600C45
0.0778195800,2385,0x00000004,0x30600C45
0.0778236800,2386,0x00000004,0x30600C45
0.0778277800,2387,0x00000004,0x30600C45
0.0778318600,2388,0x00000004,0x30600C45
0.0778359600,2389,0x00000004,0x30600C45
0.0778702800,2390,0x00000004,0x30600C45
0.0778784600,2391,0x00000004,0x30600C45
0.0779474800,2392,0x09C00004,0x30602212
0.0779638400,2393,0x05400014,0x30602705
0.0779679400,2394,0x05400014,0x30602705
0.0779720400,2395,0x05400014,0x30602705
0.0779925000,2396,0x00000004,0x30600C45
0.0779966000,2397,0x00000004,0x30600C45
0.0780007000,2398,0x00000004,0x30600C45
0.0780047800,2399,0x00000004,0x30600C45
0.0782951400,2400,0x0800001C,0x30600005
0.0782992200,2401,0x00000004,0x30600C45
0.0783033200,2402,0x00000004,0x30600C45
0.0783074200,2403,0x00000004,0x30600C45
0.0783115000,2404,0x00000004,0x30600C45
0.0783156000,2405,0x00000004,0x30600C45
0.0783197000,2406,0x00000004,0x30600C45
0.0783237800,2407,0x00000004,0x30600C45
0.0783278800,2408,0x00000004,0x30600C45
0.0783319800,2409,0x00000004,0x30600C45
0.0783360600,2410,0x00000004,0x30600C45
0.0783703800,2411,0x00000004,0x30600C45
0.0783785600,2412,0x00000004,0x30600C45
0.0784475800,2413,0x09C00004,0x30602212
0.0784639400,2414,0x05400014,0x30602705
0.0784680400,2415,0x05400014,0x30602705
0.0784721400,2416,0x05400014,0x30602705
0.0784926000,2417,0x00000004,0x30600C45
0.0784967000,2418,0x00000004,0x30600C45
0.0785007800,2419,0x00000004,0x30600C45
0.0785048800,2420,0x00000004,0x30600C45
0.0787950400,2421,0x0800001C,0x30600005
0.0787991200,2422,0x00000004,0x30600C45
0.0788032200,2423,0x00000004,0x30600C45
0.0788073200,2424,0x00000004,0x30600C45
0.0788114000,2425,0x00000004,0x30600C45
0.0788155000,2426,0x00000004,0x30600C45
0.0788196000,2427,0x00000004,0x30600C45
0.0788236800,2428,0x00000004,0x30600C45
0.0788277800,2429,0x00000004,0x30600C45
0.0788318800,2430,0x00000004,0x30600C45
0.0788359600,2431,0x00000004,0x30600C45
0.0788702800,2432,0x00000004,0x30600C45
0.0788784600,2433,0x00000004,0x30600C45
0.0789474200,2434,0x09C00004,0x30602212
0.0789638000,2435,0x05400014,0x30602705
0.0789679000,2436,0x05400014,0x30602705
0.0789719800,2437,0x05400014,0x30602705
0.0789924600,2438,0x00000004,0x30600C45
0.0789965600,2439,0x00000004,0x30600C45
0.0790006400,2440,0x00000004,0x30600C45
0.0790047400,2441,0x00000004,0x30600C45
0.0792951400,2442,0x0800001C,0x30600005
0.0792992400,2443,0x00000004,0x30600C45
0.0793033200,2444,0x00000004,0x30600C45
0.0793074200,2445,0x00000004,0x30600C45
0.0793115200,2446,0x00000004,0x30600C45
0.0793156000,2447,0x00000004,0x30600C45
0.0793197000,2448,0x00000004,0x30600C45
0.0793238000,2449,0x00000004,0x30600C45
0.0793278800,2450,0x00000004,0x30600C45
0.0793319800,2451,0x00000004,0x30600C45
0.0793360800,2452,0x00000004,0x30600C45
0.0793703800,2453,0x00000004,0x30600C45
0.0793785800,2454,0x00000004,0x30600C45
0.0794475400,2455,0x09C00004,0x30602212
0.0794639000,2456,0x05400014,0x30602705
0.0794680000,2457,0x05400014,0x30602705
0.0794721000,2458,0x05400014,0x30602705
0.0794925600,2459,0x00000004,0x30600C45
0.0794966600,2460,0x00000004,0x30600C45
0.0795007600,2461,0x00000004,0x30600C45
0.0795048400,2462,0x00000004,0x30600C45
0.0797950400,2463,0x0800001C,0x30200007
0.0797991400,2464,0x00000004,0x30200C47
0.0798032200,2465,0x00000004,0x30200C47
0.0798073200,2466,0x00000004,0x30200C47
0.0798114200,2467,0x00000004,0x30200C47
0.0798155000,2468,0x00000004,0x30200C47
0.0798196000,2469,0x00000004,0x30200C47
0.0798237000,2470,0x00000004,0x30200C47
0.0798277800,2471,0x00000004,0x30200C47
0.0798318800,2472,0x00000004,0x30200C47
0.0798359800,2473,0x00000004,0x30200C47
0.0798702800,2474,0x48C00008,0x30200007
0.0798784800,2475,0x00000004,0x30200C47
0.0799474400,2476,0x09C00004,0x30202210
0.0799638200,2477,0x05400014,0x30202707
0.0799679200,2478,0x05400014,0x30202707
0.0799720000,2479,0x05400014,0x30202707
0.0799924800,2480,0x00000004,0x30200C47
0.0799965600,2481,0x00000004,0x30200C47
0.0800006600,2482,0x00000004,0x30200C47
0.0800047600,2483,0x00000004,0x30200C47
0.0802954000,2484,0x0800001C,0x30200007
0.0802995000,2485,0x00000004,0x30200C47
0.0803036000,2486,0x00000004,0x30200C47
0.0803076800,2487,0x00000004,0x30200C47
0.0803117800,2488,0x00000004,0x30200C47
0.0803158800,2489,0x00000004,0x30200C47
0.0803199600,2490,0x00000004,0x30200C47
0.0803240600,2491,0x00000004,0x30200C47
0.0803281600,2492,0x00000004,0x30200C47
0.0803322400,2493,0x00000004,0x30200C47
0.0803363400,2494,0x00000004,0x30200C47
0.0803706600,2495,0x0300017C,0x30200007
0.0803788400,2496,0x00000004,0x30600C45
0.0804476200,2497,0x09C00004,0x30602212
0.0804640000,2498,0x05400014,0x30602705
0.0804681000,2499,0x05400014,0x30602705
0.0804721800,2500,0x05400014,0x30602705
0.0804926600,2501,0x00000004,0x30600C45
0.0804967400,2502,0x00000004,0x30600C45
0.0805008400,2503,0x00000004,0x30600C45
0.0805049400,2504,0x00000004,0x30600C45
0.0807950400,2505,0x0800001C,0x30600005
0.0807991400,2506,0x00000004,0x30600C45
0.0808032400,2507,0x00000004,0x30600C45
0.0808073200,2508,0x00000004,0x30600C45
0.0808114200,2509,0x00000004,0x30600C45
0.0808155200,2510,0x00000004,0x30600C45
0.0808196000,2511,0x00000004,0x30600C45
0.0808237000,2512,0x00000004,0x30600C45
0.0808278000,2513,0x00000004,0x30600C45
0.0808318800,2514,0x00000004,0x30600C45
0.0808359800,2515,0x00000004,0x30600C45
0.0808703000,2516,0x00000004,0x30600C45
0.0808784800,2517,0x00000004,0x30600C45
0.0809474400,2518,0x09C00004,0x30602212
0.0809638200,2519,0x05400014,0x30602705
0.0809679000,2520,0x05400014,0x30602705
0.0809720000,2521,0x05400014,0x30602705
0.0809924800,2522,0x00000004,0x30600C45
0.0809965600,2523,0x00000004,0x30600C45
0.0810006600,2524,0x00000004,0x30600C45
0.0810047600,2525,0x00000004,0x30600C45
0.0812951600,2526,0x0800001C,0x30600005
