Time [s],Packet ID,MOSI,MISO
0.0205849000,0,0xFF00FF00,0xFFFFFFFF
0.0205914200,1,0x20800100,0xFFFFFFFF
0.0205979600,2,0x20000010,0x2802E089
0.0206044800,3,0x20000010,0x2802E089
0.0210842400,4,0xFF00FF00,0x2800000C
0.0210907800,5,0x20800100,0xA800000C
0.0210973000,6,0x20000010,0xA802E089
0.0211038400,7,0x20000010,0x2802E089
0.0215847600,8,0xFF00FF00,0x2800000C
0.0215913000,9,0x20800100,0xA800000C
0.0215978200,10,0x20000010,0xA802E089
0.0216043600,11,0x20000010,0x2802E089
0.0220842600,12,0xFF00FF00,0x2800000C
0.0220907800,13,0x20800100,0xA800000C
0.0220973200,14,0x20000010,0xA802E089
0.0221038400,15,0x20000010,0x2802E089
0.0225843200,16,0xFF00FF00,0x2800000C
0.0225908600,17,0x20800100,0xA800000C
0.0225973800,18,0x20000010,0xA802E089
0.0226039200,19,0x20000010,0x2802E089
0.0230842600,20,0xFF00FF00,0x2800000C
0.0230907800,21,0x20800100,0xA800000C
0.0230973200,22,0x20000010,0xA802E089
0.0231038600,23,0x20000010,0x2802E089
0.0235843400,24,0xFF00FF00,0x2800000C
0.0235908600,25,0x20800100,0xA800000C
0.0235974000,26,0x20000010,0xA802E089
0.0236039200,27,0x20000010,0x2802E089
0.0240842600,28,0xFF00FF00,0x2800000C
0.0240908000,29,0x20800100,0xA800000C
0.0240973200,30,0x20000010,0xA802E089
0.0241038600,31,0x20000010,0x2802E089
0.0245849800,32,0xFF00FF00,0x2800000C
0.0245915000,33,0x20800100,0xA800000C
0.0245980400,34,0x20000010,0xA802E089
0.0246045600,35,0x20000010,0x2802E089
0.0250842600,36,0xFF00FF00,0x2800000C
0.0250908000,37,0x20800100,0xA800000C
0.0250973200,38,0x20000010,0xA802E089
0.0251038600,39,0x20000010,0x2802E089
0.0255843400,40,0xFF00FF00,0x2800000C
0.0255908800,41,0x20800100,0xA800000C
0.0255974000,42,0x20000010,0xA802E089
0.0256039400,43,0x20000010,0x2802E089
0.0260842600,44,0xFF00FF00,0x2800000C
0.0260908000,45,0x20800100,0xA800000C
0.0260973400,46,0x20000010,0xA802E089
0.0261038600,47,0x20000010,0x2802E089
0.0265843400,48,0xFF00FF00,0x2800000C
0.0265908800,49,0x20800100,0xA800000C
0.0265974000,50,0x20000010,0xA802E089
0.0266039400,51,0x20000010,0x2802E089
0.0270842800,52,0xFF00FF00,0x2800000C
0.0270908000,53,0x20800100,0xA800000C
0.0270973400,54,0x20000010,0xA802E089
0.0271038600,55,0x20000010,0x2802E089
0.0275843400,56,0xFF00FF00,0x2800000C
0.0275908800,57,0x20800100,0xA800000C
0.0275974000,58,0x20000010,0xA802E089
0.0276039400,59,0x20000010,0x2802E089
0.0280842800,60,0xFF00FF00,0x2800000C
0.0280908000,61,0x20800100,0xA800000C
0.0280973400,62,0x20000010,0xA802E089
0.0281038800,63,0x20000010,0x2802E089
0.0285846000,64,0xFF00FF00,0x2800000C
0.0285911400,65,0x20800100,0xA800000C
0.0285976600,66,0x20000010,0xA802E089
0.0286042000,67,0x20000010,0x2802E089
0.0290846000,68,0xFF00FF00,0x2800000C
0.0290911400,69,0x20800100,0xA800000C
0.0290976600,70,0x20000010,0xA802E089
0.0291042000,71,0x20000010,0x2802E089
0.0295849800,72,0xFF00FF00,0x2800000C
0.0295915200,73,0x20800100,0xA800000C
0.0295980400,74,0x20000010,0xA802E089
0.0296045800,75,0x20000010,0x2802E089
0.0300846000,76,0xFF00FF00,0x2800000C
0.0300911400,77,0x20800100,0xA800000C
0.0300976800,78,0x20000010,0xA802E089
0.0301042000,79,0x20000010,0x2802E089
0.0305847200,80,0xFF00FF00,0x2800000C
0.0305912400,81,0x20800100,0xA800000C
0.0305977800,82,0x20000010,0xA802E089
0.0306043000,83,0x20000010,0x2802E089
0.0310846200,84,0xFF00FF00,0x2800000C
0.0310911400,85,0x20800100,0xA800000C
0.0310976800,86,0x20000010,0xA802E089
0.0311042000,87,0x20000010,0x2802E089
0.0315847200,88,0xFF00FF00,0x2800000C
0.0315912400,89,0x20800100,0xA800000C
0.0315977800,90,0x20000010,0xA802E089
0.0316043200,91,0x20000010,0x2802E089
0.0320846200,92,0xFF00FF00,0x2800000C
0.0320911400,93,0x20800100,0xA800000C
0.0320976800,94,0x20000010,0xA802E089
0.0321042000,95,0x20000010,0x2802E089
0.0325847200,96,0xFF00FF00,0x2800000C
0.0325912600,97,0x20800100,0xA800000C
0.0325977800,98,0x20000010,0xA802E089
0.0326043200,99,0x20000010,0x2802E089
0.0330846200,100,0xFF00FF00,0x2800000C
0.0330911600,101,0x20800100,0xA800000C
0.0330976800,102,0x20000010,0xA802E089
0.0331042200,103,0x20000010,0x2802E089
0.0335847200,104,0xFF00FF00,0x2800000C
0.0335912600,105,0x20800100,0xA800000C
0.0335977800,106,0x20000010,0xA802E089
0.0336043200,107,0x20000010,0x2802E089
0.0340846200,108,0xFF00FF00,0x2800000C
0.0340911600,109,0x20800100,0xA800000C
0.0340976800,110,0x20000010,0xA802E089
0.0341042200,111,0x20000010,0x2802E089
0.0345893600,112,0xFF00FF00,0x2800000C
0.0345958800,113,0x20800100,0xA800000C
0.0346024200,114,0x20000010,0xA802E089
0.0346089600,115,0x20000010,0x2802E089
0.0350847400,116,0xFF00FF00,0x2800000C
0.0350912600,117,0x20800100,0xA800000C
0.0350978000,118,0x20000010,0xA802E089
0.0351043200,119,0x20000010,0x2802E089
0.0355847400,120,0xFF00FF00,0x2800000C
0.0355912600,121,0x20800100,0xA800000C
0.0355978000,122,0x20000010,0xA802E089
0.0356043200,123,0x20000010,0x2802E089
0.0360846400,124,0xFF00FF00,0x2800000C
0.0360911600,125,0x20800100,0xA800000C
0.0360977000,126,0x20000010,0xA802E089
0.0361042200,127,0x20000010,0x2802E089
0.0365847400,128,0xFF00FF00,0x2800000C
0.0365912800,129,0x20800100,0xA800000C
0.0365978000,130,0x20000010,0xA802E089
0.0366043400,131,0x20000010,0x2802E089
0.0370846400,132,0xFF00FF00,0x2800000C
0.0370911600,133,0x20800100,0xA800000C
0.0370977000,134,0x20000010,0xA802E089
0.0371042400,135,0x20000010,0x2802E089
0.0375847400,136,0xFF00FF00,0x2800000C
0.0375912800,137,0x20800100,0xA800000C
0.0375978000,138,0x20000010,0xA802E089
0.0376043400,139,0x20000010,0x2802E089
0.0380846400,140,0xFF00FF00,0x2800000C
0.0380911800,141,0x20800100,0xA800000C
0.0380977000,142,0x20000010,0xA802E089
0.0381042400,143,0x20000010,0x2802E089
0.0385847400,144,0xFF00FF00,0x2800000C
0.0385912800,145,0x20800100,0xA800000C
0.0385978000,146,0x20000010,0xA802E089
0.0386043400,147,0x20000010,0x2802E089
0.0390846400,148,0xFF00FF00,0x2800000C
0.0390911800,149,0x20800100,0xA800000C
0.0390977000,150,0x20000010,0xA802E089
0.0391042400,151,0x20000010,0x2802E089
0.0395850200,152,0xFF00FF00,0x2800000C
0.0395915600,153,0x20800100,0xA800000C
0.0395980800,154,0x20000010,0xA802E089
0.0396046200,155,0x20000010,0x2802E089
0.0400846600,156,0xFF00FF00,0x2800000C
0.0400911800,157,0x20800100,0xA800000C
0.0400977200,158,0x20000010,0xA802E089
0.0401042400,159,0x20000010,0x2802E089
0.0405847600,160,0xFF00FF00,0x2800000C
0.0405912800,161,0x20800100,0xA800000C
0.0405978200,162,0x20000010,0xA802E089
0.0406043600,163,0x20000010,0x2802E089
0.0410846600,164,0xFF00FF00,0x2800000C
0.0410911800,165,0x20800100,0xA800000C
0.0410977200,166,0x20000010,0xA802E089
0.0411042400,167,0x20000010,0x2802E089
0.0415847600,168,0xFF00FF00,0x2800000C
0.0415913000,169,0x20800100,0xA800000C
0.0415978200,170,0x20000010,0xA802E089
0.0416043600,171,0x20000010,0x2802E089
0.0420846600,172,0xFF00FF00,0x2800000C
0.0420911800,173,0x20800100,0xA800000C
0.0420977200,174,0x20000010,0xA802E089
0.0421042600,175,0x20000010,0x2802E089
0.0425847600,176,0xFF00FF00,0x2800000C
0.0425913000,177,0x20800100,0xA800000C
0.0425978200,178,0x20000010,0xA802E089
0.0426043600,179,0x20000010,0x2802E089
0.0430846600,180,0xFF00FF00,0x2800000C
0.0430912000,181,0x20800100,0xA800000C
0.0430977200,182,0x20000010,0xA802E089
0.0431042600,183,0x20000010,0x2802E089
0.0435847800,184,0xFF00FF00,0x2800000C
0.0435913000,185,0x20800100,0xA800000C
0.0435978400,186,0x20000010,0xA802E089
0.0436043600,187,0x20000010,0x2802E089
0.0440846600,188,0xFF00FF00,0x2800000C
0.0440912000,189,0x20800100,0xA800000C
0.0440977400,190,0x20000010,0xA802E089
0.0441042600,191,0x20000010,0x2802E089
0.0445850800,192,0xFF00FF00,0x2800000C
0.0445916200,193,0x20800100,0xA800000C
0.0445981400,194,0x20000010,0xA802E089
0.0446046800,195,0x20000010,0x2802E089
0.0450846800,196,0xFF00FF00,0x2800000C
0.0450912000,197,0x20800100,0xA800000C
0.0450977400,198,0x20000010,0xA802E089
0.0451042600,199,0x20000010,0x2802E089
0.0455847800,200,0xFF00FF00,0x2800000C
0.0455913000,201,0x20800100,0xA800000C
0.0455978400,202,0x20000010,0xA802E089
0.0456043800,203,0x20000010,0x2802E089
0.0460846800,204,0xFF00FF00,0x2800000C
0.0460912000,205,0x20800100,0xA800000C
0.0460977400,206,0x20000010,0xA802E089
0.0461042800,207,0x20000010,0x2802E089
0.0465848600,208,0xFF00FF00,0x2800000C
0.0465914000,209,0x20800100,0xA800000C
0.0465979200,210,0x20000010,0xA802E089
0.0466044600,211,0x20000010,0x2802E089
0.0470846800,212,0xFF00FF00,0x2800000C
0.0470912000,213,0x20800100,0xA800000C
0.0470977400,214,0x20000010,0xA802E089
0.0471042800,215,0x20000010,0x2802E089
0.0475847800,216,0xFF00FF00,0x2800000C
0.0475913200,217,0x20800100,0xA800000C
0.0475978400,218,0x20000010,0xA802E089
0.0476043800,219,0x20000010,0x2802E089
0.0480846800,220,0xFF00FF00,0x2800000C
0.0480912200,221,0x20800100,0xA800000C
0.0480977400,222,0x20000010,0xA802E089
0.0481042800,223,0x20000010,0x2802E089
0.0485848000,224,0xFF00FF00,0x2800000C
0.0485913200,225,0x20800100,0xA800000C
0.0485978600,226,0x20000010,0xA802E089
0.0486043800,227,0x20000010,0x2802E089
0.0490846800,228,0xFF00FF00,0x2800000C
0.0490912200,229,0x20800100,0xA800000C
0.0490977600,230,0x20000010,0xA802E089
0.0491042800,231,0x20000010,0x2802E089
0.0495850400,232,0xFF00FF00,0x2800000C
0.0495915800,233,0x20800100,0xA800000C
0.0495981000,234,0x20000010,0xA802E089
0.0496046400,235,0x20000010,0x2802E089
0.0500847000,236,0xFF00FF00,0x2800000C
0.0500912200,237,0x20800100,0xA800000C
0.0500977600,238,0x20000010,0xA802E089
0.0501042800,239,0x20000010,0x2802E089
0.0505848000,240,0xFF00FF00,0x2800000C
0.0505913400,241,0x20800100,0xA800000C
0.0505978600,242,0x20000010,0xA802E089
0.0506044000,243,0x20000010,0x2802E089
0.0510847000,244,0xFF00FF00,0x2800000C
0.0510912200,245,0x20800100,0xA800000C
0.0510977600,246,0x20000010,0xA802E089
0.0511043000,247,0x20000010,0x2802E089
0.0515848000,248,0xFF00FF00,0x2800000C
0.0515913400,249,0x20800100,0xA800000C
0.0515978600,250,0x20000010,0xA802E089
0.0516044000,251,0x20000010,0x2802E089
0.0520847000,252,0xFF00FF00,0x2800000C
0.0520912400,253,0x20800100,0xA800000C
0.0520977600,254,0x20000010,0xA802E089
0.0521043000,255,0x20000010,0x2802E089
0.0525848000,256,0xFF00FF00,0x2800000C
0.0525913400,257,0x20800100,0xA800000C
0.0525978600,258,0x20000010,0xA802E089
0.0526044000,259,0x20000010,0x2802E089
0.0530847000,260,0xFF00FF00,0x2800000C
0.0530912400,261,0x20800100,0xA800000C
0.0530977600,262,0x20000010,0xA802E089
0.0531043000,263,0x20000010,0x2802E089
0.0535848200,264,0xFF00FF00,0x2800000C
0.0535913400,265,0x20800100,0xA800000C
0.0535978800,266,0x20000010,0xA802E089
0.0536044000,267,0x20000010,0x2802E089
0.0540847000,268,0xFF00FF00,0x2800000C
0.0540912400,269,0x20800100,0xA800000C
0.0540977800,270,0x20000010,0xA802E089
0.0541043000,271,0x20000010,0x2802E089
0.0545898000,272,0xFF00FF00,0x2800000C
0.0545963400,273,0x20800100,0xA800000C
0.0546028600,274,0x20000010,0xA802E089
0.0546094000,275,0x20000010,0x2802E089
0.0550847200,276,0xFF00FF00,0x2800000C
0.0550912400,277,0x20800100,0xA800000C
0.0550977800,278,0x20000010,0xA802E089
0.0551043000,279,0x20000010,0x2802E089
0.0555848200,280,0xFF00FF00,0x2800000C
0.0555913600,281,0x20800100,0xA800000C
0.0555978800,282,0x20000010,0xA802E089
0.0556044200,283,0x20000010,0x2802E089
0.0560847200,284,0xFF00FF00,0x2800000C
0.0560912400,285,0x20800100,0xA800000C
0.0560977800,286,0x20000010,0xA802E089
0.0561043200,287,0x20000010,0x2802E089
0.0565848200,288,0xFF00FF00,0x2800000C
0.0565913600,289,0x20800100,0xA800000C
0.0565978800,290,0x20000010,0xA802E089
0.0566044200,291,0x20000010,0x2802E089
0.0570847200,292,0xFF00FF00,0x2800000C
0.0570912600,293,0x20800100,0xA800000C
0.0570977800,294,0x20000010,0xA802E089
0.0571043200,295,0x20000010,0x2802E089
0.0575848200,296,0xFF00FF00,0x2800000C
0.0575913600,297,0x20800100,0xA800000C
0.0575979000,298,0x20000010,0xA802E089
0.0576044200,299,0x20000010,0x2802E089
0.0580847200,300,0xFF00FF00,0x2800000C
0.0580912600,301,0x20800100,0xA800000C
0.0580977800,302,0x20000010,0xA802E089
0.0581043200,303,0x20000010,0x2802E089
0.0585848400,304,0xFF00FF00,0x2800000C
0.0585913600,305,0x20800100,0xA800000C
0.0585979000,306,0x20000010,0xA802E089
0.0586044200,307,0x20000010,0x2802E089
0.0590847400,308,0xFF00FF00,0x2800000C
0.0590912600,309,0x20800100,0xA800000C
0.0590978000,310,0x20000010,0xA802E089
0.0591043200,311,0x20000010,0x2802E089
0.0595851000,312,0xFF00FF00,0x2800000C
0.0595916400,313,0x20800100,0xA800000C
0.0595981800,314,0x20000010,0xA802E089
0.0596047000,315,0x20000010,0x2802E089
0.0600847400,316,0xFF00FF00,0x2800000C
0.0600912600,317,0x20800100,0xA800000C
0.0600978000,318,0x20000010,0xA802E089
0.0601043200,319,0x20000010,0x2802E089
0.0605848400,320,0xFF00FF00,0x2800000C
0.0605913800,321,0x20800100,0xA800000C
0.0605979000,322,0x20000010,0xA802E089
0.0606044400,323,0x20000010,0x2802E089
0.0610847400,324,0xFF00FF00,0x2800000C
0.0610912800,325,0x20800100,0xA800000C
0.0610978000,326,0x20000010,0xA802E089
0.0611043400,327,0x20000010,0x2802E089
0.0615848400,328,0xFF00FF00,0x2800000C
0.0615913800,329,0x20800100,0xA800000C
0.0615979000,330,0x20000010,0xA802E089
0.0616044400,331,0x20000010,0x2802E089
0.0620847400,332,0xFF00FF00,0x2800000C
0.0620912800,333,0x20800100,0xA800000C
0.0620978000,334,0x20000010,0xA802E089
0.0621043400,335,0x20000010,0x2802E089
0.0625848400,336,0xFF00FF00,0x2800000C
0.0625913800,337,0x20800100,0xA800000C
0.0625979200,338,0x20000010,0xA802E089
0.0626044400,339,0x20000010,0x2802E089
0.0630847400,340,0xFF00FF00,0x2800000C
0.0630912800,341,0x20800100,0xA800000C
0.0630978000,342,0x20000010,0xA802E089
0.0631043400,343,0x20000010,0x2802E089
0.0635848600,344,0xFF00FF00,0x2800000C
0.0635913800,345,0x20800100,0xA800000C
0.0635979200,346,0x20000010,0xA802E089
0.0636044400,347,0x20000010,0x2802E089
0.0640847600,348,0xFF00FF00,0x2800000C
0.0640912800,349,0x20800100,0xA800000C
0.0640978200,350,0x20000010,0xA802E089
0.0641043400,351,0x20000010,0x2802E089
0.0645850800,352,0xFF00FF00,0x2800000C
0.0645916000,353,0x20800100,0xA800000C
0.0645981400,354,0x20000010,0xA802E089
0.0646046800,355,0x20000010,0x2802E089
0.0650847600,356,0xFF00FF00,0x2800000C
0.0650912800,357,0x20800100,0xA800000C
0.0650978200,358,0x20000010,0xA802E089
0.0651043600,359,0x20000010,0x2802E089
0.0655848600,360,0xFF00FF00,0x2800000C
0.0655914000,361,0x20800100,0xA800000C
0.0655979200,362,0x20000010,0xA802E089
0.0656044600,363,0x20000010,0x2802E089
0.0660847600,364,0xFF00FF00,0x2800000C
0.0660913000,365,0x20800100,0xA800000C
0.0660978200,366,0x20000010,0xA802E089
0.0661043600,367,0x20000010,0x2802E089
0.0665848600,368,0xFF00FF00,0x2800000C
0.0665914000,369,0x20800100,0xA800000C
0.0665979200,370,0x20000010,0xA802E089
0.0666044600,371,0x20000010,0x2802E089
0.0670847600,372,0xFF00FF00,0x2800000C
0.0670913000,373,0x20800100,0xA800000C
0.0670978200,374,0x20000010,0xA802E089
0.0671043600,375,0x20000010,0x2802E089
0.0675848800,376,0xFF00FF00,0x2800000C
0.0675914000,377,0x20800100,0xA800000C
0.0675979400,378,0x20000010,0xA802E089
0.0676044600,379,0x20000010,0x2802E089
0.0680847600,380,0xFF00FF00,0x2800000C
0.0680913000,381,0x20800100,0xA800000C
0.0680978400,382,0x20000010,0xA802E089
0.0681043600,383,0x20000010,0x2802E089
0.0685848800,384,0xFF00FF00,0x2800000C
0.0685914000,385,0x20800100,0xA800000C
0.0685979400,386,0x20000010,0xA802E089
0.0686044600,387,0x20000010,0x2802E089
0.0690847800,388,0xFF00FF00,0x2800000C
0.0690913000,389,0x20800100,0xA800000C
0.0690978400,390,0x20000010,0xA802E089
0.0691043600,391,0x20000010,0x2802E089
0.0695851600,392,0xFF00FF00,0x2800000C
0.0695916800,393,0x20800100,0xA800000C
0.0695982200,394,0x20000010,0xA802E089
0.0696047400,395,0x20000010,0x2802E089
0.0700847800,396,0xFF00FF00,0x2800000C
0.0700913000,397,0x20800100,0xA800000C
0.0700978400,398,0x20000010,0xA802E089
0.0701043800,399,0x20000010,0x2802E089
0.0705848800,400,0xFF00FF00,0x2800000C
0.0705914200,401,0x20800100,0xA800000C
0.0705979400,402,0x20000010,0xA802E089
0.0706044800,403,0x20000010,0x2802E089
0.0710847800,404,0xFF00FF00,0x2800000C
0.0710913200,405,0x20800100,0xA800000C
0.0710978400,406,0x20000010,0xA802E089
0.0711043800,407,0x20000010,0x2802E089
0.0715850200,408,0xFF00FF00,0x2800000C
0.0715915600,409,0x20800100,0xA800000C
0.0715980800,410,0x20000010,0xA802E089
0.0716046200,411,0x20000010,0x2802E089
0.0720848000,412,0xFF00FF00,0x2800000C
0.0720913400,413,0x20800100,0xA800000C
0.0720978600,414,0x20000010,0xA802E089
0.0721044000,415,0x20000010,0x2802E089
0.0725849000,416,0xFF00FF00,0x2800000C
0.0725914200,417,0x20800100,0xA800000C
0.0725979600,418,0x20000010,0xA802E089
0.0726044800,419,0x20000010,0x2802E089
0.0730847800,420,0xFF00FF00,0x2800000C
0.0730913200,421,0x20800100,0xA800000C
0.0730978600,422,0x20000010,0xA802E089
0.0731043800,423,0x20000010,0x2802E089
0.0735849000,424,0xFF00FF00,0x2800000C
0.0735914200,425,0x20800100,0xA800000C
0.0735979600,426,0x20000010,0xA802E089
0.0736044800,427,0x20000010,0x2802E089
0.0740848000,428,0xFF00FF00,0x2800000C
0.0740913200,429,0x20800100,0xA800000C
0.0740978600,430,0x20000010,0xA802E089
0.0741043800,431,0x20000010,0x2802E089
0.0745851800,432,0xFF00FF00,0x2800000C
0.0745917000,433,0x20800100,0xA800000C
0.0745982400,434,0x20000010,0xA802E089
0.0746047600,435,0x20000010,0x2802E089
0.0750848000,436,0xFF00FF00,0x2800000C
0.0750913200,437,0x20800100,0xA800000C
0.0750978600,438,0x20000010,0xA802E089
0.0751044000,439,0x20000010,0x2802E089
0.0755849000,440,0xFF00FF00,0x2800000C
0.0755914400,441,0x20800100,0xA800000C
0.0755979600,442,0x20000010,0xA802E089
0.0756045000,443,0x20000010,0x2802E089
0.0760848000,444,0xFF00FF00,0x2800000C
0.0760913400,445,0x20800100,0xA800000C
0.0760978600,446,0x20000010,0xA802E089
0.0761044000,447,0x20000010,0x2802E089
0.0765849000,448,0xFF00FF00,0x2800000C
0.0765914400,449,0x20800100,0xA800000C
0.0765979800,450,0x20000010,0xA802E089
0.0766045000,451,0x20000010,0x2802E089
0.0770848000,452,0xFF00FF00,0x2800000C
0.0770913400,453,0x20800100,0xA800000C
0.0770978600,454,0x20000010,0xA802E089
0.0771044000,455,0x20000010,0x2802E089
0.0775849200,456,0xFF00FF00,0x2800000C
0.0775914400,457,0x20800100,0xA800000C
0.0775979800,458,0x20000010,0xA802E089
0.0776045000,459,0x20000010,0x2802E089
0.0780848000,460,0xFF00FF00,0x2800000C
0.0780913400,461,0x20800100,0xA800000C
0.0780978800,462,0x20000010,0xA802E089
0.0781044000,463,0x20000010,0x2802E089
0.0785849200,464,0xFF00FF00,0x2800000C
0.0785914400,465,0x20800100,0xA800000C
0.0785979800,466,0x20000010,0xA802E089
0.0786045200,467,0x20000010,0x2802E089
0.0790848200,468,0xFF00FF00,0x2800000C
0.0790913400,469,0x20800100,0xA800000C
0.0790978800,470,0x20000010,0xA802E089
0.0791044000,471,0x20000010,0x2802E089
0.0795852000,472,0xFF00FF00,0x2800000C
0.0795917200,473,0x20800100,0xA800000C
0.0795982600,474,0x20000010,0xA802E089
0.0796047800,475,0x20000010,0x2802E089
0.0800848200,476,0xFF00FF00,0x2800000C
0.0800913600,477,0x20800100,0xA800000C
0.0800978800,478,0x20000010,0xA802E089
0.0801044200,479,0x20000010,0x2802E089
0.0805849200,480,0xFF00FF00,0x2800000C
0.0805914600,481,0x20800100,0xA800000C
0.0805979800,482,0x20000010,0xA802E089
0.0806045200,483,0x20000010,0x2802E089
0.0810848200,484,0xFF00FF00,0x2800000C
0.0810913600,485,0x20800100,0xA800000C
0.0810978800,486,0x20000010,0xA802E089
0.0811044200,487,0x20000010,0x2802E089
0.0815849400,488,0xFF00FF00,0x2800000C
0.0815914600,489,0x20800100,0xA800000C
0.0815980000,490,0x20000010,0xA802E089
0.0816045200,491,0x20000010,0x2802E089
0.0820848200,492,0xFF00FF00,0x2800000C
0.0820913600,493,0x20800100,0xA800000C
0.0820978800,494,0x20000010,0xA802E089
0.0821044200,495,0x20000010,0x2802E089
0.0825849400,496,0xFF00FF00,0x2800000C
0.0825914600,497,0x20800100,0xA800000C
0.0825980000,498,0x20000010,0xA802E089
0.0826045200,499,0x20000010,0x2802E089
0.0830848400,500,0xFF00FF00,0x2800000C
0.0830913600,501,0x20800100,0xA800000C
0.0830979000,502,0x20000010,0xA802E089
0.0831044200,503,0x20000010,0x2802E089
0.0835849400,504,0xFF00FF00,0x2800000C
0.0835914600,505,0x20800100,0xA800000C
0.0835980000,506,0x20000010,0xA802E089
0.0836045400,507,0x20000010,0x2802E089
0.0840848400,508,0xFF00FF00,0x2800000C
0.0840913600,509,0x20800100,0xA800000C
0.0840979000,510,0x20000010,0xA802E089
0.0841044400,511,0x20000010,0x2802E089
0.0845901600,512,0xFF00FF00,0x2800000C
0.0845967000,513,0x20800100,0xA800000C
